! scikit-rf NetworkSet converted to GMDIF file
! Awesome!
!-------------------------------------------------------------------------------
! network name: LEE-39+___28mA___Minus45degC

VAR current_mA(1) = 28.0
VAR temp_C(1) = -45.0

BEGIN ACDATA
%F n11x n11y n21x n21y n12x n12y n22x n22y
! Mini-Circuits  
! S2P DATA File Format
! Type: MMIC Amplifier
! Model: LEE-39+
! TEST CONDITIONS: INPUT POWER = -25dBm, Icc = 28mA, Vd = 3.76V @Temperature = -45degC
! 401 Frequency points
! S Parameters are in dB deg format
!
!Created with skrf (http://scikit-rf.org).
# MHz S RI R 50.0 
!freq ReS11 ImS11 ReS21 ImS21 ReS12 ImS12 ReS22 ImS22
50.0 -0.0021799702639684654 -0.010260356435221284 -14.443451859947388 1.5940616158939689 0.0542830612424061 -0.0010783036491214162 -0.022360158804610182 0.0011514980557599593
65.0 0.001540481562489769 -0.0018557826099131235 -14.380106285619698 1.970085223593719 0.052673643966418875 -0.0032133532491693535 -0.018390263045697304 0.0017743444026939229
80.0 0.01581243672998809 -0.0053639058943368645 -14.417475397559931 2.4457813016309524 0.053915096906117135 -0.004319911515421061 -0.01865907695590111 -0.004590361039427405
95.0 0.015132505634755804 -0.0035036304704188404 -14.158070365302095 2.811078011782911 0.05282942933274617 -0.005768968150414144 -0.01658932385445516 -0.006220981511447466
110.0 0.016126596766554393 -0.006956557374497241 -14.055056685687353 3.2213613580805918 0.05288297152285771 -0.005497574912143251 -0.018456490652210552 -0.00508723034049044
125.0 0.011734619296045821 -0.004848885209684108 -13.915708086544603 3.5970330332580116 0.053264539424360324 -0.007319065669621986 -0.018788471547539022 -0.007348372360431235
140.0 0.014461722821539947 -0.0028157893871384697 -13.902217598824365 4.059235720279406 0.053197145862838004 -0.007793815138519285 -0.015373946610861914 -0.006613116598447328
155.0 0.013781300263044811 -0.004855595285083341 -13.736386566313026 4.472236184756864 0.05254958901216972 -0.00808533868517939 -0.014427433635025069 -0.007201743887661832
170.0 0.022792667339623814 -0.008375682103059017 -13.584749520210757 4.854684250407033 0.05278697316491453 -0.009535925692991923 -0.013179774487818497 -0.010270522638994688
185.0 0.01939092125463854 -0.006852215493031856 -13.353418067986535 5.208965218550556 0.052840908610888526 -0.009858364911830344 -0.017472044223696064 -0.008635222104828356
200.0 0.018797417290565534 -0.008355394240905948 -13.17090573158903 5.574718407285757 0.05276584824998594 -0.010540783804787094 -0.02013465418434694 -0.008184433052458522
215.0 0.014241836628673326 -0.006490979270080766 -13.022885917622128 5.967842283583421 0.052991509548052124 -0.01176249066668047 -0.023301306505132673 -0.00701112321375988
230.0 0.014013368246329663 -0.005551680301159839 -12.866732626457154 6.387101544095145 0.05235945553810572 -0.012536569975910308 -0.018540810358296574 -0.008482775013691029
245.0 0.011969508885585631 -0.00825104605620108 -12.644092471639052 6.778850538464931 0.051988232273386364 -0.013388938634575596 -0.02125200613188703 -0.008317874863475917
260.0 0.0094010824971417 -0.00859942443762848 -12.387238116108282 7.062977276022133 0.052173627872954445 -0.01440334628980028 -0.019632935291400474 -0.009358962348660078
275.0 0.010832684380423 -0.009532166051645936 -12.117477640059551 7.422691063385882 0.05183299159176164 -0.015057895112482735 -0.029500809669155283 -0.003631652001518266
290.0 0.006093675673137308 -0.007175000986520108 -11.864124528202748 7.702003271522095 0.051621924062361525 -0.01604088833388444 -0.030906291774671614 -0.0032260234469723395
305.0 0.003006476399888592 -0.006066872883277308 -11.7082825477884 8.130499954644053 0.05159688237812774 -0.016697168101356477 -0.037895941319543894 0.001921051785969344
320.0 -0.0015982577110818725 -0.004963996086819221 -11.422633055096906 8.422722370346053 0.051324126669980964 -0.017786618155850198 -0.032550387662756496 -0.0006767181935176689
335.0 0.00028181796791223513 -0.006812063183712547 -11.190874250214925 8.781391602990539 0.051120051177056695 -0.018048356402350054 -0.03640407279666186 0.0012356352777034352
350.0 -0.0006031472404141897 -0.009342148327305042 -10.828840560473969 9.0318598945903 0.05035489804122318 -0.0188960743642194 -0.03577376829855734 0.0018585459311413082
365.0 -0.001791405844444915 -0.00996419754247552 -10.563118669653528 9.314280219512979 0.05064858183468482 -0.019834687057002923 -0.04507881549379055 0.008293030984976508
380.0 -0.008283331669627485 -0.003955028948684067 -10.239694787659948 9.529308865235896 0.05068743534823869 -0.02093429885499068 -0.0442286476460969 0.008289151580708809
395.0 -0.009622669555065287 -0.004101836105659004 -9.998719861184796 9.9430318403002 0.05059662381398695 -0.02192867265253794 -0.0478665644086321 0.010715234970902317
410.0 -0.011117596722668866 -0.0005001806706982034 -9.684282804946337 10.153518646630916 0.049778011394133785 -0.022221962410721333 -0.044706430155885095 0.007212838440447524
425.0 -0.006728109473782931 -0.006588421546485665 -9.382118423978202 10.481172997418867 0.049313485227174124 -0.023454801697624244 -0.047244177614984756 0.010593228818622607
440.0 -0.008920805157372156 -0.004544200606486502 -9.003088405988342 10.587575301377475 0.04933476484110918 -0.02371671220905 -0.048215104459501015 0.011451782097477551
455.0 -0.00812926330801143 -0.007692301317902082 -8.692306355057799 10.840075293624196 0.04895578559044865 -0.02474221764247788 -0.05193164141892017 0.015472612749415918
470.0 -0.010735163792112206 0.000606203411185552 -8.368690772422319 11.025742512974775 0.04863478686674766 -0.025856308526553066 -0.051837688597986695 0.01660235238082099
485.0 -0.011676748796365164 0.0012381974170020623 -8.054515347779121 11.333804125802224 0.04847494996913468 -0.026513973724294117 -0.051678727067962664 0.016338874520497242
500.0 -0.013232556632078897 0.0004546917373003718 -7.700727505642982 11.517553918257624 0.04789036213296483 -0.027453715257440083 -0.05053375343082997 0.014625956201836033
515.0 -0.00731152288445783 -0.0029761879988725267 -7.348447236649358 11.72852051662423 0.04756979516943059 -0.027829852307989743 -0.051059961729965256 0.015299297144566097
530.0 -0.009596984458628086 -0.0021428940155227456 -6.989159054809331 11.822731505099965 0.04733977687593335 -0.028602274119783867 -0.053415992857002985 0.020014999997543886
545.0 -0.009696344086108902 0.00024798057875513883 -6.632284456138136 11.947248291182508 0.04684134436755126 -0.029745920183818216 -0.053896521384045215 0.020962459732495543
560.0 -0.01050481478332757 0.00017694331042652895 -6.317712976151729 12.23039174455663 0.04653514641855254 -0.030562064845838777 -0.0551010580310703 0.02627477394486864
575.0 -0.011581864026363778 0.0023031455798465466 -5.943161714496823 12.36056963603254 0.04597203823383399 -0.03134589150010062 -0.05109880403844455 0.019874318314570576
590.0 -0.011509931226696801 -0.0014193596885646394 -5.573954763137141 12.545226282162316 0.045469014150634084 -0.03198224796169004 -0.05164050219662828 0.02456932946676458
605.0 -0.008604174075038681 -0.0026473183432344817 -5.169412409878953 12.528898690566878 0.045025534730893775 -0.03274539482178304 -0.05027108252227709 0.022009931056621492
620.0 -0.007631750686240881 -0.00558109832479017 -4.839045112045758 12.673533922635709 0.044678037005298515 -0.03374317704910405 -0.053778727722254 0.03073956570120108
635.0 -0.011514807810030883 0.002222613515705554 -4.450601714375975 12.709634611863315 0.04387047622909531 -0.03471399987031242 -0.051313174177389974 0.03187754328576075
650.0 -0.010593525748650908 0.0023301068600802216 -4.095152543535629 12.951110669094023 0.043850386197717806 -0.035463746539818944 -0.05361295692092489 0.03423947202931035
665.0 -0.0124759244344265 0.005535864449446462 -3.713082635184894 12.994411961367234 0.04268236997620896 -0.03563613597327462 -0.050521727067599005 0.03116510555945387
680.0 -0.01036494876736882 -0.0015137453091620787 -3.3221877611475135 13.072538353492662 0.04265765606251012 -0.03656203318405127 -0.050701076310645334 0.03339058668946851
695.0 -0.009844560595807005 0.0020934238824218527 -2.9935148187509304 13.032737390853095 0.04182799244869391 -0.03697505812243287 -0.05078741601527246 0.03615948334620767
710.0 -0.010635996666654534 0.004656040408783268 -2.5991311623641415 13.081032425455467 0.04122615454564061 -0.03811173409723357 -0.0520445808060624 0.04077443792357512
725.0 -0.00976613769462586 0.00532002853308442 -2.238508961129153 13.180293048934132 0.04106270299086747 -0.03923488703657606 -0.053181252041019804 0.04512013395662902
740.0 -0.009890180463733234 0.00828033219946455 -1.8567274598155998 13.19292365209593 0.04030391000136173 -0.03937353375263653 -0.05045182371144441 0.039394600928613924
755.0 -0.009197624264231546 0.0004733351236274851 -1.4978201831511275 13.176868752192322 0.03972732340335888 -0.04037604088120685 -0.05175685897892218 0.04639965496743009
770.0 -0.009606842741906237 0.010233469267748815 -1.1169835086979443 13.150400571102702 0.03894206335430981 -0.041250686597950864 -0.051628505659566316 0.04827255312410732
785.0 -0.00826969382081779 0.00840091816848541 -0.7324754787425362 13.250658889255185 0.038528398702797624 -0.04185091471753691 -0.050225355824487485 0.049129380851971965
800.0 -0.011185422497263195 0.011815853653438449 -0.3751945770235744 13.209150161554927 0.037569170206168796 -0.04215634167484539 -0.048007170098569314 0.04803566658269728
815.0 -0.008305169355043414 0.004164359478242617 0.020462900833069314 13.173448442108056 0.03716488163630975 -0.04282420341105925 -0.04740853709403122 0.04680342309794504
830.0 -0.00827281602960815 0.006016731807634535 0.357966365083415 13.085416693789817 0.036296388559843164 -0.04357974266091904 -0.04734379981566472 0.05422725826636028
845.0 -0.007611199435983434 0.004670546797426786 0.7054831118161141 13.009553021522827 0.03577981017745684 -0.044459779640500394 -0.046274809916934244 0.05585719264365256
860.0 -0.00731646380603308 0.00998241598834418 1.0743263474840667 13.01443475107776 0.03524538694788451 -0.04535302676539393 -0.04541062933680465 0.05982846302191936
875.0 -0.006193730280086991 0.011695452755617104 1.4339861496351685 12.949511958507392 0.034271806638657844 -0.04577208470307531 -0.04387934680459052 0.05344621156510114
890.0 -0.00787417030564649 0.00716167852495005 1.8282522842095588 12.907331632601593 0.0335991415010562 -0.0463983423824307 -0.042620451461853615 0.057304863290843375
905.0 -0.00869652477058006 0.006350453974897873 2.125634071492773 12.725481877006969 0.032774501090334425 -0.04677555539191742 -0.04174556847184266 0.055478782816497464
920.0 -0.00915722892717379 0.0027603711783891326 2.463139992478667 12.649360139068612 0.03231359217320811 -0.04788703659567034 -0.038474742954920135 0.06486072603279286
935.0 -0.007515423799200571 0.010828595396310012 2.7818329033925537 12.489225407248266 0.03157127454648747 -0.048578367515897926 -0.03746284010911094 0.06441414271846535
950.0 -0.007816613589279372 0.0087298262763454 3.182240832704712 12.477149145279888 0.03089389482938943 -0.04904348477813098 -0.03543370797698294 0.06690568548777841
965.0 -0.007181046224600061 0.01221487294609307 3.492948644723787 12.320014307133572 0.02982652256144614 -0.0492106672045549 -0.03513650200396992 0.06330451987820179
980.0 -0.009058394372846508 0.0046555822131468805 3.83358080003228 12.232223044887611 0.029255099744697595 -0.04999196824407669 -0.03287138043775063 0.06467827970703904
995.0 -0.008574922534599499 0.006378057465029904 4.102023236140109 12.020723090636347 0.02842513211823559 -0.05032319140919601 -0.031524855756423394 0.06777505337125825
1010.0 -0.00981541745251243 0.00561838546174871 4.418185003495409 11.894118247960165 0.027696068327220543 -0.05119931015752027 -0.028112069313992506 0.07201087317927068
1025.0 -0.006681838663895572 0.011806263242630254 4.726887870420222 11.7041628339883 0.026873586895732115 -0.051930890675764764 -0.026748085240815452 0.074910423070592
1040.0 -0.0072425274103747285 0.011940484022274867 5.086388432098121 11.581074691265846 0.026156103247305117 -0.05245414894853468 -0.025933885658106084 0.07004077095581036
1055.0 -0.00472402917133695 0.010707264835448775 5.390003237159506 11.428442138049764 0.02541236276517096 -0.05266883560349934 -0.025906541202010754 0.07246572977421689
1070.0 -0.006397063464577818 0.00738314918317496 5.645048222710829 11.19762539876022 0.02437021835290398 -0.053048050910805666 -0.024570991278451183 0.07068536464650825
1085.0 -0.006057805178872709 0.0078105197895043145 5.9107908065815495 10.99591330691843 0.023355756673878805 -0.0540470057961027 -0.0199215027718701 0.08031269238558567
1100.0 -0.004448284182594164 0.011879774985174884 6.1646573650010605 10.792908172669788 0.022600229589289717 -0.054551008753643784 -0.019330523960191803 0.07955037762740094
1115.0 -0.0051665856846874626 0.013823073811497156 6.495109189771285 10.659513728602157 0.02165532235854566 -0.05516715434209271 -0.01648859712482733 0.0845664072502865
1130.0 -0.001840270202733091 0.016945484266058828 6.772565566139146 10.444393692820155 0.020834840714228337 -0.054966559908650084 -0.01905565170836339 0.0792202079198012
1145.0 -0.004397641163888476 0.009524351649100728 7.090608008787843 10.232886463737007 0.019772742120812464 -0.05555899393951715 -0.01572698806392592 0.08200820758017768
1160.0 -0.0035810830070867852 0.011231166745268029 7.247003142484379 9.948695324355638 0.019077894078583683 -0.05580140765315689 -0.01498449613826909 0.08085698205611368
1175.0 -0.004777646678459691 0.009204428994407094 7.504343408779935 9.743533129349577 0.018104259213384658 -0.056755499933994216 -0.010529748424989566 0.08625570517224221
1190.0 0.0008204102120148639 0.015509336952084023 7.70087125927911 9.498253884252335 0.01728792873030083 -0.05670196912427322 -0.008879532620894597 0.08749331220684492
1205.0 -0.0008742464938835589 0.01293032963488328 8.022462520396608 9.295424165167468 0.016327558632314658 -0.057635091935410235 -0.007617062263749712 0.0875208290541188
1220.0 0.0004385144046574483 0.01750506688698966 8.21813250370368 9.031609695776314 0.015348396409187469 -0.05761875680932703 -0.007970639650398076 0.0860188230781202
1235.0 -0.004150901053671302 0.012387769994401616 8.462079587320634 8.79370893474096 0.014362393386693477 -0.05801402831486393 -0.006926914151560085 0.0851269226677589
1250.0 -0.0025102683725564405 0.014433755037069914 8.618703005639865 8.539046281545076 0.013465842041778267 -0.058447963605786135 -0.0018864383039269594 0.0896094448041344
1265.0 -0.001986057098716439 0.012453643867675225 8.810227451455976 8.270171820149207 0.012456119435835845 -0.05894025776164938 -0.00011580010857301716 0.08966018647597221
1280.0 0.0009779529140314174 0.013423025641035546 9.01710325457409 8.008573663281755 0.011332633027671304 -0.05952061345063384 0.004777198623487866 0.0919527431683623
1295.0 0.0012310480117471287 0.014947968883263895 9.23423242662398 7.770163050662653 0.010515829851615545 -0.05948644326757638 0.0018483250064643935 0.087076744570306
1310.0 -0.0011722058364900135 0.012089773005212264 9.434654990813899 7.483179060166045 0.009659621874116632 -0.05966669970832678 0.0052017753172267055 0.08778876530649614
1325.0 -0.002126644819121698 0.012400981351649014 9.520811312858578 7.212033195272931 0.008705255362454214 -0.05968694196785299 0.004191083265547558 0.08590803671255276
1340.0 -0.004683684318546816 0.011777955237448208 9.715029565537504 6.924547941013672 0.007482833522922845 -0.06039372398224489 0.01265347221887793 0.09110689866661559
1355.0 -9.455839868418511e-05 0.015523582111674414 9.822791196982475 6.634789576913657 0.006554394439119671 -0.06064969475253068 0.012972408717637477 0.08974487791252087
1370.0 -0.0012741906247185 0.014009124589896867 10.052309242517389 6.36635350012138 0.005263075651970717 -0.06096600028328223 0.017707763334845503 0.09009906253022178
1385.0 0.0018950552644910665 0.016591492152921085 10.153493510492083 6.0743338885205596 0.004511339746573895 -0.060793549778265184 0.015480322297803448 0.08682703405522749
1400.0 -0.0049855679948426395 0.01016019789287732 10.330838234135337 5.7675596257829564 0.0035600600805661587 -0.06116678442540199 0.01888485182079656 0.08750115423021389
1415.0 -0.0029702056050291458 0.01214465491185109 10.352698847040744 5.46898557311743 0.0024921402939266425 -0.06098706109841189 0.021385532569884486 0.08690258512860984
1430.0 -0.005995359954811707 0.011599400269476387 10.498504275800018 5.186632234996132 0.0012106215826952038 -0.06148452615490356 0.025033075673111294 0.0883884622710965
1445.0 2.86293107710886e-05 0.015330250192730167 10.586070473526764 4.897506241323525 0.00018129508361892848 -0.06182984148250627 0.02865010220747816 0.08899974273842785
1460.0 -0.00010365864670182846 0.015837648427408736 10.718498874650148 4.597054944167033 -0.0009184403529916558 -0.06175924554358142 0.02729490535840238 0.08625332470591351
1475.0 -0.00029291530245240734 0.014244860568343858 10.822938928710734 4.298439215455097 -0.0018351774626280556 -0.061724578382103455 0.030799843069666478 0.08583176796227497
1490.0 -0.004007274809466731 0.014130340099771179 10.871213700687566 4.003921379389415 -0.0028504825833310515 -0.061586470872991184 0.029775543093698332 0.08423301946616205
1505.0 -0.0015631510674804952 0.017034490294602054 10.965069678797141 3.6935627854408484 -0.004284290496313909 -0.061967575827982097 0.033746634914272815 0.08419782030814155
1520.0 -0.0024320890081583626 0.015314085772813497 11.049183133663464 3.3976949579484255 -0.004927012186826108 -0.061776473743399965 0.03684368992022262 0.08547616380102176
1535.0 -0.0035712431243764605 0.01520697006275132 11.058348745113289 3.0933726521615674 -0.006213209164740062 -0.0617034346882629 0.03606839800238204 0.08584107072447271
1550.0 -0.0008890502433205295 0.012232238368892314 11.08019869535239 2.757879907706751 -0.007388089009176388 -0.061811557132972574 0.04865475495978747 0.08516611422194384
1565.0 -0.001996618123320943 0.013177133333865531 11.080310298723454 2.5078281221121914 -0.008223801879682911 -0.06215578437859503 0.04460034988411672 0.08328048851798796
1580.0 -0.0017482791575665366 0.016445984087852257 11.17376049244946 2.1784361209109484 -0.009540308135193014 -0.06215753527505903 0.049431852195322805 0.08354475755288565
1600.0 -0.0007048628036385335 0.015234761822281898 11.18640898675686 1.7931741870089355 -0.010711120933810098 -0.06170253926434303 0.04657507187952321 0.07966218425091477
1615.0 -0.006985593634911651 0.013717692954947007 11.221336283826297 1.4820990631949078 -0.012023691872185676 -0.06185076891102142 0.047329644239301874 0.07891944113717181
1635.0 -0.0068353967770922106 0.012940933118285163 11.173004459118966 1.109305958224421 -0.013775677701182673 -0.06185700383371965 0.053812579969467485 0.07920064615676377
1650.0 -0.004711534346659804 0.01314651307672402 11.163230782285513 0.8170340723891952 -0.014665823100521308 -0.06186233089351888 0.05356491971933728 0.0786116220377438
1670.0 -0.0029119651108492025 0.014207387777409406 11.205775950850414 0.38641898861620916 -0.01629950877516014 -0.06177847355769103 0.05739817317557324 0.07767686862024495
1685.0 -0.0009730100647925467 0.01358749176107092 11.148855337111112 0.10624620760893906 -0.017031340199360367 -0.0614130287569697 0.05410823794266836 0.07581496009176976
1705.0 -0.008572573472495976 0.01251196247146547 11.103387260697207 -0.28648615257883153 -0.018584398238786153 -0.06118381358479692 0.055351123685441816 0.07325106059598141
1720.0 -0.007345470270613115 0.01354050598584076 11.01122815328134 -0.5616583304130716 -0.019730689579336137 -0.0606923779975402 0.06115689483001982 0.07204743143919197
1740.0 -0.005743836078060447 0.013333194611301422 10.919149072563343 -0.9124925792929408 -0.021531177631258176 -0.060523390957881444 0.06176291378889481 0.07030819897685642
1755.0 -0.006719955283174413 0.013132509254164232 10.922447583391339 -1.2398213543737835 -0.022742883889478614 -0.06053854170303346 0.06590692231156367 0.06908101755749681
