! Mini-Circuits  
! S2P DATA File Format
! Type: MMIC Amplifier
! Model: LEE-39+
! TEST CONDITIONS: INPUT POWER = -25dBm, Icc = 28mA, Vd = 3.58V @Temperature = +25degC
! 401 Frequency points
!
! S Parameters are in dB deg format
!
# MHz S DB R 50
!    FREQ       dB(S11)   PHS(S11)  dB(S21)   PHS(S21)  dB(S12)   PHS(S12)  dB(S22)   PHS(S22) 
   50.000000   -29.286   -21.658    22.812   173.983   -25.007    -3.748   -35.319   -11.974 
   65.000000   -30.424   -10.062    22.771   172.467   -24.890    -3.356   -41.582    -7.969 
   80.000000   -29.081   -10.403    22.895   170.683   -25.129    -4.620   -37.398   -32.848 
   95.000000   -29.297    -9.683    22.840   169.151   -25.262    -5.753   -40.309   -69.117 
  110.000000   -28.619   -17.454    22.855   167.450   -24.972    -5.751   -39.737   -60.773 
  125.000000   -28.607   -17.456    22.754   165.887   -25.038    -7.727   -39.220   -89.077 
  140.000000   -29.471   -13.685    22.772   164.185   -25.043    -8.146   -36.751   -55.642 
  155.000000   -29.841   -19.657    22.730   162.514   -25.071    -8.282   -37.385   -70.362 
  170.000000   -29.712   -22.391    22.791   160.905   -25.123    -9.376   -36.008   -72.902 
  185.000000   -29.226   -22.040    22.779   159.300   -25.166    -9.931   -37.039   -95.843 
  200.000000   -28.962   -25.861    22.759   157.678   -25.087   -11.437   -36.144  -106.360 
  215.000000   -28.163   -26.301    22.695   156.131   -25.049   -12.155   -35.647  -101.991 
  230.000000   -29.946   -27.638    22.706   154.389   -25.047   -12.599   -35.108   -92.100 
  245.000000   -29.355   -32.439    22.683   152.725   -25.091   -13.762   -34.508   -93.824 
  260.000000   -31.763   -38.415    22.711   151.166   -25.065   -14.441   -33.710  -104.644 
  275.000000   -28.786   -35.935    22.705   149.417   -25.091   -15.393   -33.839  -113.698 
  290.000000   -29.309   -36.334    22.662   147.895   -25.046   -16.365   -33.151  -125.118 
  305.000000   -28.067   -36.752    22.622   146.314   -25.035   -17.215   -33.214  -116.535 
  320.000000   -30.886   -42.709    22.589   144.762   -24.936   -17.735   -32.975  -118.433 
  335.000000   -30.273   -44.317    22.625   143.032   -25.055   -18.593   -32.163  -111.733 
  350.000000   -30.739   -48.311    22.624   141.378   -25.002   -19.652   -32.097  -136.703 
  365.000000   -28.930   -49.354    22.634   139.788   -25.079   -20.228   -31.817  -134.529 
  380.000000   -29.298   -50.280    22.539   138.311   -24.891   -21.260   -31.330  -145.916 
  395.000000   -28.955   -52.284    22.528   136.599   -24.943   -22.103   -31.461  -128.121 
  410.000000   -30.928   -52.908    22.473   135.112   -24.873   -23.398   -30.748  -136.820 
  425.000000   -30.517   -57.020    22.541   133.399   -24.998   -23.658   -30.825  -134.392 
  440.000000   -31.081   -59.796    22.492   131.823   -24.935   -24.693   -30.011  -154.968 
  455.000000   -29.474   -61.100    22.527   130.172   -24.993   -25.410   -30.050  -150.530 
  470.000000   -29.636   -57.499    22.417   128.769   -24.884   -26.385   -29.687  -159.062 
  485.000000   -30.513   -62.180    22.422   127.086   -24.875   -27.438   -29.998  -145.610 
  500.000000   -30.956   -67.275    22.352   125.540   -24.830   -28.357   -29.523  -152.528 
  515.000000   -31.829   -64.636    22.425   123.849   -24.861   -29.108   -29.231  -152.626 
  530.000000   -30.773   -68.758    22.392   122.349   -24.924   -29.875   -28.654  -166.058 
  545.000000   -30.435   -68.291    22.347   120.846   -24.840   -30.795   -28.267  -168.107 
  560.000000   -29.214   -69.818    22.309   119.309   -24.795   -31.578   -28.923  -161.862 
  575.000000   -31.703   -75.188    22.276   117.740   -24.800   -32.473   -28.597  -164.118 
  590.000000   -31.865   -80.084    22.319   116.002   -24.849   -33.645   -28.723  -163.080 
  605.000000   -32.398   -77.750    22.280   114.441   -24.808   -34.385   -27.860  -176.395 
  620.000000   -29.892   -75.787    22.296   112.938   -24.851   -34.965   -27.753  -175.850 
  635.000000   -30.592   -79.913    22.198   111.456   -24.707   -36.353   -27.513   175.826 
  650.000000   -30.252   -79.081    22.203   109.834   -24.757   -37.256   -27.844  -173.204 
  665.000000   -32.469   -87.086    22.147   108.412   -24.683   -38.048   -27.574  -179.064 
  680.000000   -32.056   -88.098    22.191   106.706   -24.750   -38.673   -27.721  -175.073 
  695.000000   -32.947   -88.034    22.165   105.256   -24.736   -39.467   -26.856   170.479 
  710.000000   -32.123   -89.450    22.145   103.669   -24.692   -40.415   -26.700   170.554 
  725.000000   -30.246   -86.604    22.084   102.139   -24.685   -41.213   -26.690   171.779 
  740.000000   -33.346   -92.271    22.049   100.634   -24.671   -42.398   -26.861   171.908 
  755.000000   -31.185   -92.169    22.109    98.916   -24.742   -43.016   -26.240   166.293 
  770.000000   -31.863   -94.024    22.005    97.519   -24.642   -44.202   -25.779   160.659 
  785.000000   -31.871   -94.483    22.012    95.937   -24.642   -44.926   -26.464   166.106 
  800.000000   -33.075  -104.836    21.959    94.435   -24.606   -45.767   -26.438   162.279 
  815.000000   -33.098  -103.190    22.002    92.738   -24.646   -46.573   -26.272   163.763 
  830.000000   -32.105  -100.836    21.972    91.284   -24.626   -47.467   -25.682   155.540 
  845.000000   -31.494  -100.372    21.947    89.727   -24.611   -48.436   -25.449   153.818 
  860.000000   -31.130  -101.252    21.870    88.332   -24.539   -49.122   -25.583   154.359 
  875.000000   -33.981  -106.707    21.851    86.779   -24.548   -50.204   -25.727   155.038 
  890.000000   -32.893  -109.983    21.859    85.107   -24.550   -51.036   -25.773   155.046 
  905.000000   -34.310  -115.680    21.850    83.515   -24.552   -51.933   -25.105   147.764 
  920.000000   -31.160  -109.570    21.844    82.047   -24.587   -52.807   -25.112   145.953 
  935.000000   -32.017  -111.888    21.746    80.618   -24.513   -54.038   -24.746   141.418 
  950.000000   -31.093  -112.000    21.755    79.074   -24.502   -54.577   -25.280   147.525 
  965.000000   -33.337  -119.050    21.679    77.709   -24.450   -55.961   -24.956   143.885 
  980.000000   -33.023  -119.371    21.740    75.981   -24.469   -56.608   -25.208   145.109 
  995.000000   -33.094  -120.967    21.694    74.532   -24.496   -57.349   -24.269   135.919 
 1010.000000   -31.856  -122.110    21.717    72.990   -24.470   -58.355   -24.419   135.573 
 1025.000000   -31.774  -122.113    21.608    71.630   -24.411   -59.509   -24.154   132.294 
 1040.000000   -32.891  -128.553    21.601    70.060   -24.402   -60.175   -24.764   136.405 
 1055.000000   -33.362  -124.269    21.576    68.510   -24.398   -61.040   -24.389   134.350 
 1070.000000   -34.411  -127.578    21.576    66.953   -24.417   -61.880   -24.372   131.919 
 1085.000000   -32.060  -125.313    21.564    65.418   -24.400   -62.891   -23.926   127.218 
 1100.000000   -32.503  -129.501    21.515    63.971   -24.321   -63.977   -23.768   125.027 
 1115.000000   -31.026  -132.631    21.468    62.609   -24.320   -64.898   -24.013   126.612 
 1130.000000   -34.074  -140.720    21.458    61.045   -24.297   -65.933   -23.922   126.270 
 1145.000000   -32.858  -135.993    21.475    59.379   -24.340   -66.539   -24.086   126.210 
 1160.000000   -33.908  -139.598    21.444    57.937   -24.326   -67.502   -23.487   118.810 
 1175.000000   -31.577  -136.391    21.440    56.435   -24.312   -68.089   -23.607   119.136 
 1190.000000   -31.824  -137.556    21.342    55.042   -24.196   -69.515   -23.183   114.401 
 1205.000000   -31.273  -138.861    21.343    53.563   -24.208   -70.204   -23.665   118.881 
 1220.000000   -32.860  -149.435    21.277    52.133   -24.183   -71.297   -23.450   116.564 
 1235.000000   -32.888  -151.212    21.343    50.439   -24.235   -72.023   -23.633   117.085 
 1250.000000   -32.487  -152.540    21.295    49.047   -24.188   -73.049   -23.093   110.997 
 1265.000000   -31.763  -147.714    21.281    47.476   -24.190   -73.796   -23.100   110.384 
 1280.000000   -30.808  -144.708    21.186    46.198   -24.159   -74.715   -23.063   108.352 
 1295.000000   -32.646  -152.475    21.186    44.672   -24.101   -75.923   -23.285   109.763 
 1310.000000   -32.225  -153.380    21.168    43.140   -24.159   -76.705   -23.202   108.624 
 1325.000000   -33.555  -159.046    21.172    41.615   -24.135   -77.681   -22.895   105.666 
 1340.000000   -30.886  -156.014    21.149    40.033   -24.153   -78.551   -22.706   103.347 
 1355.000000   -31.175  -158.681    21.096    38.712   -24.034   -79.659   -22.506   100.675 
 1370.000000   -30.209  -156.677    21.063    37.262   -24.062   -80.488   -23.009   103.558 
 1385.000000   -32.281  -164.404    21.000    35.857   -23.993   -81.513   -22.835   100.841 
 1400.000000   -31.705  -159.486    21.040    34.100   -24.053   -82.093   -22.951   101.882 
 1415.000000   -32.220  -162.682    20.997    32.684   -24.021   -83.167   -22.427    94.973 
 1430.000000   -30.431  -162.958    21.007    31.145   -24.042   -84.244   -22.483    95.818 
 1445.000000   -30.617  -165.564    20.918    29.969   -23.961   -85.119   -22.166    92.281 
 1460.000000   -31.297  -170.003    20.903    28.446   -23.934   -86.128   -22.651    95.832 
 1475.000000   -31.569  -168.642    20.861    26.963   -23.936   -87.063   -22.469    92.426 
 1490.000000   -31.972  -173.246    20.885    25.337   -23.941   -87.910   -22.521    92.359 
 1505.000000   -30.597  -174.642    20.822    23.931   -23.893   -89.066   -22.511    90.729 
 1520.000000   -30.869  -172.872    20.790    22.520   -23.880   -89.807   -22.422    88.701 
 1535.000000   -31.644  -174.841    20.803    20.908   -23.900   -90.819   -22.262    87.801 
 1550.000000   -30.039  -172.853    20.767    19.435   -23.897   -91.484   -22.024    84.475 
 1565.000000   -29.948  -175.310    20.749    18.095   -23.853   -92.657   -21.894    83.107 
 1580.000000   -28.917  -179.257    20.683    16.692   -23.825   -93.533   -22.021    83.224 
 1600.000000   -30.207   177.809    20.623    14.850   -23.753   -95.122   -22.177    81.264 
 1615.000000   -30.059   177.718    20.669    13.141   -23.806   -95.715   -22.345    82.812 
 1635.000000   -29.168   179.194    20.620    11.263   -23.776   -96.753   -21.840    76.892 
 1650.000000   -29.204   177.531    20.611     9.733   -23.738   -97.830   -21.759    76.284 
 1670.000000   -28.557   175.154    20.536     7.944   -23.735   -99.115   -21.931    77.097 
 1685.000000   -29.953   171.328    20.476     6.569   -23.663  -100.227   -21.834    75.396 
 1705.000000   -29.514   171.508    20.503     4.467   -23.675  -101.249   -21.954    74.434 
 1720.000000   -29.005   169.888    20.460     3.001   -23.682  -102.167   -21.695    70.196 
 1740.000000   -28.233   169.492    20.413     1.150   -23.609  -103.651   -21.630    68.392 
 1755.000000   -27.560   169.933    20.369    -0.240   -23.585  -104.576   -21.775    69.911 
 1775.000000   -28.933   164.719    20.312    -2.110   -23.561  -105.776   -21.714    68.111 
 1790.000000   -28.667   165.076    20.360    -3.716   -23.561  -106.757   -21.785    68.328 
 1810.000000   -27.505   163.509    20.303    -5.659   -23.571  -107.950   -21.494    63.101 
 1825.000000   -27.536   160.639    20.275    -7.097   -23.528  -109.185   -21.481    61.692 
 1845.000000   -26.970   160.932    20.202    -8.926   -23.483  -110.492   -21.831    63.069 
 1860.000000   -28.634   159.104    20.144   -10.234   -23.453  -111.341   -21.663    60.794 
 1880.000000   -28.538   156.425    20.168   -12.325   -23.461  -112.439   -21.646    60.813 
 1895.000000   -27.104   158.164    20.149   -13.756   -23.468  -113.456   -21.404    56.947 
 1915.000000   -26.839   156.485    20.084   -15.521   -23.358  -114.871   -21.335    54.635 
 1930.000000   -26.411   154.935    20.061   -17.060   -23.390  -115.827   -21.739    56.575 
 1950.000000   -27.221   152.160    19.993   -18.834   -23.339  -117.356   -21.743    54.507 
 1965.000000   -27.290   151.694    20.025   -20.438   -23.356  -118.016   -21.740    53.586 
 1985.000000   -25.906   150.584    19.995   -22.298   -23.373  -119.187   -21.483    49.802 
 2000.000000   -26.461   150.034    19.931   -23.671   -23.313  -120.397   -21.331    48.189 
 2020.000000   -26.027   147.500    19.889   -25.523   -23.284  -121.626   -21.590    49.710 
 2050.000000   -26.921   138.823    19.811   -28.309   -23.250  -123.841   -21.636    45.850 
 2090.000000   -25.643   142.099    19.771   -32.244   -23.191  -126.154   -21.813    44.114 
 2120.000000   -26.548   142.233    19.723   -35.159   -23.182  -128.036   -21.684    42.766 
 2160.000000   -25.165   136.477    19.647   -38.849   -23.067  -130.905   -21.720    38.001 
 2190.000000   -25.573   135.915    19.578   -41.578   -23.086  -132.838   -21.755    33.874 
 2230.000000   -24.205   134.672    19.539   -45.376   -23.044  -134.995   -21.617    31.136 
 2260.000000   -24.216   132.584    19.491   -48.200   -23.003  -137.125   -21.729    31.800 
 2300.000000   -23.560   126.577    19.405   -52.029   -22.926  -139.676   -21.853    26.327 
 2330.000000   -23.534   126.071    19.298   -54.535   -22.828  -141.907   -21.790    24.003 
 2370.000000   -23.033   118.916    19.248   -58.377   -22.823  -144.586   -21.780    22.276 
 2400.000000   -23.051   120.713    19.184   -61.159   -22.772  -146.805   -22.013    22.090 
 2440.000000   -23.243   115.691    19.111   -64.951   -22.723  -149.274   -22.139    19.260 
 2470.000000   -23.081   114.751    19.042   -67.686   -22.692  -151.235   -22.111    16.847 
 2510.000000   -22.786   112.085    18.989   -71.290   -22.651  -153.877   -22.302    12.884 
 2540.000000   -22.634   110.725    18.962   -74.226   -22.609  -155.422   -22.474    13.161 
 2580.000000   -22.912   107.864    18.866   -77.941   -22.526  -158.398   -22.259     7.864 
 2610.000000   -22.351   102.872    18.830   -80.595   -22.534  -160.413   -22.318     3.222 
 2650.000000   -21.647   101.386    18.734   -84.244   -22.501  -162.799   -22.545     1.291 
 2680.000000   -21.304    98.701    18.716   -87.180   -22.469  -165.093   -22.590     0.892 
 2720.000000   -21.515    94.024    18.606   -90.642   -22.335  -167.996   -22.504    -4.353 
 2750.000000   -21.209    92.711    18.539   -93.588   -22.312  -170.280   -22.704    -8.832 
 2790.000000   -20.888    90.248    18.452   -96.900   -22.288  -172.883   -22.949    -7.032 
 2820.000000   -20.768    88.427    18.384   -99.828   -22.211  -174.880   -23.067    -7.704 
 2860.000000   -20.934    84.675    18.323  -103.345   -22.151  -177.519   -23.277   -10.780 
 2890.000000   -20.718    84.040    18.259  -105.952   -22.102  -179.647   -23.313   -13.025 
 2930.000000   -20.826    79.407    18.222  -109.809   -22.095   178.173   -23.464   -15.168 
 2960.000000   -20.452    76.587    18.152  -112.504   -22.079   176.056   -23.451   -15.343 
 3000.000000   -20.389    74.591    18.119  -116.032   -22.019   173.125   -23.600   -22.419 
 3030.000000   -19.530    71.624    18.040  -118.687   -21.954   170.951   -23.695   -21.186 
 3070.000000   -20.026    68.961    17.951  -122.456   -21.890   168.498   -23.750   -24.117 
 3100.000000   -19.790    65.036    17.906  -125.059   -21.802   165.837   -23.770   -27.712 
 3140.000000   -19.846    64.568    17.811  -128.577   -21.789   163.343   -23.909   -29.480 
 3170.000000   -19.579    59.493    17.779  -131.572   -21.776   161.388   -24.125   -30.445 
 3210.000000   -19.636    60.098    17.727  -134.867   -21.740   158.702   -24.517   -34.415 
 3240.000000   -19.628    55.810    17.678  -137.738   -21.642   156.584   -24.644   -39.309 
 3280.000000   -19.182    54.605    17.610  -141.353   -21.628   154.043   -24.723   -41.767 
 3310.000000   -19.147    48.763    17.559  -144.080   -21.627   152.003   -24.696   -42.848 
 3350.000000   -18.706    48.283    17.503  -147.473   -21.562   148.913   -25.182   -46.165 
 3380.000000   -19.068    45.462    17.392  -150.338   -21.453   146.515   -25.196   -51.037 
 3420.000000   -18.624    41.105    17.332  -153.728   -21.468   143.776   -25.267   -54.008 
 3450.000000   -18.720    41.926    17.277  -156.247   -21.484   141.912   -26.156   -51.533 
 3490.000000   -18.514    38.285    17.224  -159.830   -21.353   139.242   -25.897   -52.395 
 3520.000000   -18.814    36.660    17.165  -162.364   -21.323   136.997   -26.073   -53.936 
 3560.000000   -18.313    30.612    17.097  -166.134   -21.249   134.285   -26.173   -58.360 
 3590.000000   -18.353    30.197    17.081  -168.980   -21.245   132.277   -26.156   -59.815 
 3630.000000   -18.670    24.786    16.995  -172.379   -21.223   129.521   -26.595   -63.645 
 3660.000000   -18.310    24.667    16.944  -175.168   -21.147   127.333   -26.824   -69.687 
 3700.000000   -18.557    19.596    16.866  -178.415   -21.132   124.471   -27.028   -74.211 
 3730.000000   -17.835    19.247    16.851   178.666   -21.079   122.481   -27.360   -73.231 
 3770.000000   -18.214    14.324    16.785   175.449   -21.050   119.637   -27.632   -76.749 
 3800.000000   -17.898    11.658    16.708   172.808   -20.962   117.153   -27.708   -81.481 
 3840.000000   -18.378    10.327    16.656   169.267   -20.903   114.688   -27.573   -77.975 
 3870.000000   -18.108     3.444    16.611   166.524   -20.889   112.233   -27.470   -82.908 
 3910.000000   -18.514     4.448    16.537   162.820   -20.854   109.505   -28.223   -88.842 
 3940.000000   -18.516    -0.754    16.464   160.489   -20.819   107.264   -28.285   -96.252 
 3980.000000   -18.170    -1.381    16.406   156.669   -20.750   104.532   -28.545   -98.687 
 4010.000000   -18.210    -6.071    16.393   154.143   -20.734   102.672   -29.177  -105.232 
 4050.000000   -17.833    -7.781    16.341   150.695   -20.664    99.876   -28.546  -103.356 
 4080.000000   -18.323   -11.564    16.273   148.068   -20.595    97.278   -28.599  -110.393 
 4120.000000   -18.054   -16.078    16.147   144.462   -20.548    94.099   -28.845  -121.137 
 4150.000000   -18.247   -16.973    16.105   142.120   -20.584    92.233   -29.734  -118.472 
 4190.000000   -18.007   -19.894    16.086   138.745   -20.525    89.561   -30.025  -120.075 
 4220.000000   -18.552   -22.978    16.014   135.950   -20.450    87.181   -29.954  -125.600 
 4260.000000   -18.149   -27.616    15.971   132.633   -20.403    84.477   -29.989  -131.447 
 4290.000000   -18.358   -28.657    15.947   129.879   -20.359    82.309   -29.791  -131.340 
 4330.000000   -18.430   -36.391    15.916   126.194   -20.322    79.536   -29.544  -139.193 
 4360.000000   -18.576   -36.068    15.809   123.723   -20.285    77.185   -29.168  -151.941 
 4400.000000   -18.624   -40.295    15.777   120.461   -20.257    74.348   -30.266  -154.071 
 4430.000000   -18.118   -43.013    15.748   117.717   -20.247    72.514   -29.403  -158.678 
 4470.000000   -18.861   -48.863    15.668   114.098   -20.160    69.462   -28.879  -165.328 
 4500.000000   -18.669   -51.737    15.600   111.603   -20.113    66.850   -28.581  -171.959 
 4540.000000   -19.223   -56.225    15.513   108.183   -20.071    63.894   -28.628  -175.317 
 4570.000000   -18.913   -58.166    15.495   105.491   -20.077    61.718   -28.714   178.770 
 4610.000000   -19.321   -59.559    15.445   102.109   -20.064    59.107   -29.183   173.329 
 4640.000000   -19.047   -64.529    15.417    99.436   -19.984    56.984   -28.647   172.991 
 4680.000000   -19.196   -67.963    15.332    96.069   -19.946    54.067   -27.730   164.645 
 4710.000000   -18.878   -74.302    15.329    93.332   -19.909    51.876   -27.601   161.190 
 4750.000000   -19.141   -77.374    15.273    89.956   -19.824    48.841   -26.959   157.867 
 4780.000000   -19.571   -83.132    15.175    87.253   -19.797    46.134   -26.249   153.869 
 4820.000000   -19.851   -84.495    15.098    83.905   -19.723    43.029   -25.897   147.731 
 4850.000000   -20.158   -87.488    15.038    81.503   -19.773    40.789   -26.032   142.105 
