! Mini-Circuits  
! S2P DATA File Format
! Type: MMIC Amplifier
! Model: LEE-39+
! TEST CONDITIONS: INPUT POWER = -25dBm, Icc = 35mA, Vd = 3.61V @Temperature = +25degC
! 401 Frequency points
!
! S Parameters are in dB deg format
!
# MHz S DB R 50
!    FREQ       dB(S11)   PHS(S11)  dB(S21)   PHS(S21)  dB(S12)   PHS(S12)  dB(S22)   PHS(S22) 
   50.000000   -27.575  -173.202    23.519   173.840   -25.531    -2.233   -25.991   176.482 
   65.000000   -30.910   174.972    23.509   172.275   -26.007    -4.909   -24.253   172.016 
   80.000000   -31.504   175.510    23.527   170.550   -25.673    -4.501   -24.528   176.679 
   95.000000   -32.285   171.160    23.476   168.974   -25.447    -4.308   -24.125   177.114 
  110.000000   -29.331   172.484    23.496   167.279   -25.623    -5.772   -25.119   177.559 
  125.000000   -30.032   168.869    23.483   165.683   -25.704    -6.945   -24.673   177.454 
  140.000000   -29.437   163.012    23.499   163.954   -25.793    -7.735   -24.882   174.790 
  155.000000   -30.940   166.054    23.436   162.173   -25.795    -8.697   -24.079   173.391 
  170.000000   -31.107   165.910    23.434   160.629   -25.637    -9.305   -23.979   174.428 
  185.000000   -30.608   161.687    23.383   158.980   -25.702   -10.060   -23.990   172.815 
  200.000000   -29.776   163.216    23.422   157.283   -25.709   -10.574   -24.122   173.434 
  215.000000   -29.878   159.724    23.403   155.653   -25.777   -12.039   -24.084   172.721 
  230.000000   -30.442   157.041    23.428   153.929   -25.691   -11.912   -23.992   170.677 
  245.000000   -30.948   161.769    23.349   152.261   -25.637   -13.770   -23.739   170.411 
  260.000000   -30.099   159.315    23.347   150.714   -25.661   -14.471   -23.692   170.717 
  275.000000   -29.801   156.624    23.300   148.950   -25.642   -14.873   -23.827   169.941 
  290.000000   -30.005   153.600    23.336   147.340   -25.573   -15.595   -23.722   169.088 
  305.000000   -29.692   152.200    23.318   145.787   -25.660   -16.958   -23.619   168.385 
  320.000000   -30.618   153.958    23.301   144.136   -25.604   -17.347   -22.985   165.172 
  335.000000   -30.261   151.357    23.244   142.462   -25.631   -18.158   -23.106   165.550 
  350.000000   -31.551   155.109    23.242   140.759   -25.628   -19.085   -22.691   162.846 
  365.000000   -29.188   151.213    23.217   139.182   -25.585   -19.944   -23.193   164.182 
  380.000000   -29.767   149.169    23.222   137.594   -25.655   -20.839   -22.956   162.017 
  395.000000   -28.694   148.364    23.201   135.892   -25.568   -21.683   -23.186   162.460 
  410.000000   -30.624   145.422    23.171   134.299   -25.588   -22.307   -22.320   160.041 
  425.000000   -30.089   144.537    23.144   132.650   -25.513   -23.359   -22.312   158.414 
  440.000000   -30.463   145.118    23.098   131.075   -25.539   -24.073   -21.994   156.664 
  455.000000   -28.981   142.807    23.115   129.440   -25.478   -25.179   -22.617   157.570 
  470.000000   -29.610   136.930    23.099   127.892   -25.543   -25.710   -22.378   155.201 
  485.000000   -28.540   136.441    23.096   126.264   -25.506   -26.593   -22.507   155.021 
  500.000000   -30.210   139.165    23.017   124.715   -25.515   -27.402   -21.822   152.585 
  515.000000   -29.644   133.064    23.008   123.109   -25.446   -28.220   -21.732   151.746 
  530.000000   -29.716   134.505    22.959   121.586   -25.417   -29.235   -21.561   150.084 
  545.000000   -29.118   131.380    22.998   119.996   -25.458   -29.661   -21.885   150.391 
  560.000000   -28.773   130.197    22.966   118.368   -25.495   -30.697   -22.022   148.668 
  575.000000   -29.879   130.759    22.950   116.754   -25.464   -31.832   -21.440   146.628 
  590.000000   -29.045   129.754    22.888   115.198   -25.367   -32.425   -21.407   144.620 
  605.000000   -30.300   126.585    22.871   113.531   -25.382   -33.250   -21.131   143.221 
  620.000000   -28.908   123.660    22.843   112.086   -25.352   -34.191   -21.532   143.814 
  635.000000   -29.089   124.294    22.851   110.342   -25.392   -35.138   -21.432   140.799 
  650.000000   -28.270   119.877    22.821   108.871   -25.381   -36.495   -21.527   141.513 
  665.000000   -29.647   122.595    22.791   107.335   -25.383   -36.625   -20.905   137.960 
  680.000000   -29.225   120.231    22.740   105.791   -25.292   -37.783   -21.070   137.279 
  695.000000   -29.743   116.469    22.718   104.348   -25.316   -38.498   -20.697   135.104 
  710.000000   -28.057   114.297    22.733   102.656   -25.280   -39.586   -21.014   135.261 
  725.000000   -28.571   112.009    22.697   101.066   -25.310   -40.419   -20.980   134.638 
  740.000000   -28.730   110.781    22.689    99.577   -25.324   -41.071   -20.727   132.387 
  755.000000   -28.282   109.542    22.655    98.005   -25.223   -41.990   -20.858   131.808 
  770.000000   -28.363   108.136    22.632    96.435   -25.275   -42.959   -20.625   130.104 
  785.000000   -28.174   104.910    22.624    94.790   -25.234   -43.844   -20.714   128.717 
  800.000000   -28.962   108.832    22.549    93.345   -25.230   -44.341   -20.324   125.378 
  815.000000   -29.259   105.552    22.533    91.743   -25.204   -45.612   -20.398   125.278 
  830.000000   -29.011   103.142    22.486    90.280   -25.179   -46.394   -20.309   123.814 
  845.000000   -28.764    99.994    22.509    88.663   -25.170   -47.303   -20.371   123.479 
  860.000000   -28.314    97.847    22.466    87.170   -25.163   -48.169   -20.443   122.275 
  875.000000   -28.796    96.614    22.467    85.520   -25.137   -49.012   -20.240   120.240 
  890.000000   -29.117    97.881    22.394    84.003   -25.111   -49.848   -20.090   118.356 
  905.000000   -29.610    97.391    22.385    82.464   -25.132   -50.766   -19.951   116.810 
  920.000000   -28.646    93.903    22.351    80.990   -25.068   -51.798   -20.271   116.549 
  935.000000   -28.756    92.073    22.344    79.412   -25.121   -52.444   -20.089   114.801 
  950.000000   -28.346    89.965    22.328    77.849   -25.102   -53.317   -20.239   114.452 
  965.000000   -29.688    90.857    22.272    76.358   -25.068   -54.323   -19.774   111.624 
  980.000000   -29.206    89.148    22.249    74.901   -25.013   -55.284   -19.863   110.460 
  995.000000   -29.827    88.157    22.209    73.398   -25.031   -55.995   -19.613   108.824 
 1010.000000   -28.380    86.283    22.237    71.856   -24.968   -57.047   -19.955   108.531 
 1025.000000   -28.683    84.311    22.192    70.263   -25.030   -57.813   -19.804   107.223 
 1040.000000   -28.514    83.740    22.168    68.710   -24.984   -58.943   -19.938   105.769 
 1055.000000   -29.512    78.869    22.106    67.329   -24.949   -59.637   -19.569   104.265 
 1070.000000   -29.582    78.720    22.086    65.806   -24.921   -60.527   -19.559   102.494 
 1085.000000   -28.953    76.813    22.036    64.222   -24.884   -61.580   -19.576   101.432 
 1100.000000   -28.815    76.335    22.057    62.763   -24.916   -62.358   -19.636   100.553 
 1115.000000   -28.593    77.321    22.013    61.281   -24.911   -63.341   -19.652    99.567 
 1130.000000   -29.343    76.423    22.013    59.750   -24.911   -64.028   -19.359    97.473 
 1145.000000   -29.804    72.973    21.957    58.180   -24.823   -64.947   -19.365    96.054 
 1160.000000   -30.458    72.708    21.918    56.679   -24.768   -65.940   -19.202    94.262 
 1175.000000   -28.878    70.254    21.905    55.249   -24.748   -66.990   -19.583    94.455 
 1190.000000   -29.394    68.139    21.888    53.681   -24.828   -67.724   -19.386    92.554 
 1205.000000   -29.174    67.024    21.885    52.149   -24.788   -68.535   -19.485    91.999 
 1220.000000   -30.116    70.881    21.820    50.764   -24.782   -69.538   -19.075    89.472 
 1235.000000   -29.903    69.267    21.795    49.241   -24.733   -70.425   -19.191    88.676 
 1250.000000   -29.805    68.385    21.754    47.817   -24.723   -71.372   -19.119    87.266 
 1265.000000   -29.430    63.443    21.771    46.215   -24.684   -72.328   -19.338    87.109 
 1280.000000   -29.895    60.208    21.710    44.826   -24.704   -73.155   -19.304    85.259 
 1295.000000   -30.100    60.793    21.716    43.250   -24.705   -74.107   -19.218    83.530 
 1310.000000   -30.598    60.423    21.643    41.832   -24.657   -75.015   -19.057    81.955 
 1325.000000   -30.745    60.497    21.634    40.327   -24.625   -75.896   -18.974    80.980 
 1340.000000   -29.951    59.022    21.589    38.899   -24.603   -76.795   -19.110    80.575 
 1355.000000   -30.076    58.336    21.604    37.314   -24.567   -77.729   -19.123    79.499 
 1370.000000   -29.773    55.460    21.570    35.880   -24.571   -78.585   -19.274    78.518 
 1385.000000   -31.262    56.718    21.530    34.452   -24.599   -79.446   -18.886    75.681 
 1400.000000   -31.399    51.644    21.481    32.865   -24.520   -80.367   -18.950    74.833 
 1415.000000   -31.943    52.658    21.444    31.456   -24.500   -81.496   -18.803    73.014 
 1430.000000   -30.625    50.390    21.439    29.901   -24.455   -82.473   -19.137    73.638 
 1445.000000   -30.748    50.543    21.419    28.518   -24.485   -82.976   -19.026    71.997 
 1460.000000   -30.300    49.439    21.388    26.962   -24.464   -84.018   -19.122    71.273 
 1475.000000   -32.041    48.631    21.335    25.552   -24.442   -84.957   -18.802    68.292 
 1490.000000   -31.765    48.216    21.317    24.108   -24.431   -86.136   -18.875    67.907 
 1505.000000   -31.301    49.275    21.312    22.491   -24.404   -86.872   -18.997    66.685 
 1520.000000   -32.409    46.288    21.254    21.173   -24.423   -87.551   -18.808    64.656 
 1535.000000   -32.539    44.661    21.225    19.687   -24.345   -88.888   -18.764    64.059 
 1550.000000   -31.967    42.024    21.183    18.283   -24.336   -89.562   -18.806    63.126 
 1565.000000   -32.156    40.861    21.198    16.715   -24.342   -90.605   -18.892    62.687 
 1580.000000   -31.498    45.152    21.151    15.261   -24.362   -91.600   -18.939    61.288 
 1600.000000   -33.947    46.960    21.107    13.410   -24.286   -92.674   -18.734    57.874 
 1615.000000   -33.328    44.250    21.067    11.930   -24.232   -93.878   -18.829    57.650 
 1635.000000   -33.917    40.534    21.020    10.056   -24.242   -95.048   -18.762    55.963 
 1650.000000   -33.140    36.774    21.045     8.471   -24.218   -95.798   -18.850    56.060 
 1670.000000   -32.501    35.452    20.987     6.540   -24.191   -96.885   -18.941    54.705 
 1685.000000   -34.878    41.268    20.945     5.104   -24.163   -97.783   -18.684    52.452 
 1705.000000   -35.135    38.985    20.909     3.294   -24.108   -99.337   -18.721    50.732 
 1720.000000   -35.140    40.303    20.848     1.797   -24.124  -100.326   -18.739    49.422 
 1740.000000   -35.208    37.460    20.854    -0.225   -24.111  -101.546   -18.913    48.645 
 1755.000000   -34.840    33.883    20.817    -1.645   -24.073  -102.478   -18.950    48.110 
 1775.000000   -36.665    40.504    20.760    -3.507   -24.059  -103.747   -18.689    45.472 
 1790.000000   -36.684    38.430    20.743    -4.873   -24.006  -104.852   -18.729    44.400 
 1810.000000   -36.501    39.272    20.685    -6.888   -24.000  -106.056   -18.767    43.278 
 1825.000000   -36.189    42.543    20.692    -8.413   -23.979  -106.665   -18.884    42.213 
 1845.000000   -36.279    37.613    20.631   -10.265   -23.963  -108.260   -19.034    40.646 
 1860.000000   -38.498    39.775    20.583   -11.658   -23.975  -108.907   -18.718    38.238 
 1880.000000   -38.301    40.044    20.559   -13.569   -23.882  -110.483   -18.793    37.850 
 1895.000000   -39.391    45.516    20.515   -14.926   -23.845  -111.414   -18.799    36.776 
 1915.000000   -39.918    46.803    20.497   -16.864   -23.856  -112.403   -18.932    35.858 
 1930.000000   -38.122    39.411    20.467   -18.395   -23.853  -113.559   -19.108    34.657 
 1950.000000   -40.390    64.607    20.406   -20.209   -23.829  -114.773   -18.907    31.695 
 1965.000000   -41.350    61.190    20.381   -21.628   -23.770  -115.946   -18.887    30.258 
 1985.000000   -40.349    64.033    20.338   -23.439   -23.731  -117.309   -19.006    29.791 
 2000.000000   -41.704    53.990    20.338   -25.020   -23.706  -118.087   -18.980    29.130 
 2020.000000   -40.513    50.466    20.299   -26.862   -23.702  -119.267   -19.086    27.854 
 2050.000000   -37.521    69.428    20.231   -29.735   -23.737  -121.178   -18.980    23.933 
 2090.000000   -39.142   103.390    20.144   -33.458   -23.582  -124.081   -19.127    21.103 
 2120.000000   -44.729    80.796    20.073   -36.253   -23.552  -125.959   -19.068    19.001 
 2160.000000   -36.014   114.347    19.991   -39.963   -23.529  -128.827   -19.198    15.871 
 2190.000000   -37.336   117.663    19.932   -42.858   -23.450  -130.368   -19.300    13.217 
 2230.000000   -37.343   121.920    19.863   -46.592   -23.377  -133.033   -19.398    11.036 
 2260.000000   -38.707   120.963    19.828   -49.396   -23.308  -135.037   -19.607    10.788 
 2300.000000   -34.005   113.674    19.767   -53.210   -23.312  -137.465   -19.682     6.272 
 2330.000000   -33.891   118.543    19.677   -55.877   -23.215  -139.522   -19.786     4.773 
 2370.000000   -33.310   102.272    19.622   -59.698   -23.198  -141.944   -19.785     1.572 
 2400.000000   -33.744   114.550    19.556   -62.491   -23.153  -144.308   -19.946    -0.699 
 2440.000000   -31.198   109.625    19.477   -66.319   -23.107  -146.849   -19.996    -4.432 
 2470.000000   -30.209   112.581    19.422   -69.014   -23.064  -148.896   -19.930    -6.823 
 2510.000000   -30.128   110.567    19.321   -72.476   -22.964  -151.158   -20.045   -10.641 
 2540.000000   -29.797   111.416    19.270   -75.379   -22.929  -153.389   -20.178   -11.987 
 2580.000000   -29.548   108.839    19.171   -78.968   -22.905  -156.007   -20.229   -14.997 
 2610.000000   -28.286   102.644    19.121   -81.629   -22.876  -158.048   -20.315   -18.290 
 2650.000000   -28.478   102.745    19.014   -85.269   -22.780  -160.852   -20.591   -20.135 
 2680.000000   -28.252   101.084    18.993   -88.157   -22.734  -162.904   -20.786   -20.798 
 2720.000000   -27.923    94.321    18.910   -91.855   -22.709  -165.639   -20.670   -24.981 
 2750.000000   -27.284    94.775    18.860   -94.696   -22.680  -167.458   -20.843   -28.609 
 2790.000000   -27.182    93.340    18.773   -98.052   -22.594  -170.251   -21.117   -29.212 
 2820.000000   -26.922    92.489    18.721  -100.969   -22.559  -172.421   -21.219   -31.820 
 2860.000000   -25.789    87.038    18.646  -104.453   -22.457  -174.851   -21.322   -35.745 
 2890.000000   -25.162    88.234    18.586  -107.169   -22.450  -176.919   -21.350   -38.426 
 2930.000000   -25.661    82.917    18.510  -110.781   -22.365  -179.463   -21.540   -41.043 
 2960.000000   -25.028    79.831    18.434  -113.438   -22.333   178.278   -21.599   -42.612 
 3000.000000   -24.260    78.328    18.385  -117.017   -22.253   175.757   -21.817   -46.209 
 3030.000000   -24.436    76.556    18.338  -119.753   -22.229   173.561   -22.084   -46.092 
 3070.000000   -24.374    73.530    18.269  -123.502   -22.164   171.047   -22.072   -49.951 
 3100.000000   -23.533    68.338    18.222  -126.095   -22.144   168.727   -22.011   -53.550 
 3140.000000   -23.708    69.788    18.093  -129.580   -22.098   166.032   -22.180   -55.884 
 3170.000000   -23.405    63.572    18.047  -132.468   -22.040   163.792   -22.320   -58.248 
 3210.000000   -23.203    65.588    17.961  -135.792   -22.008   161.161   -22.654   -62.210 
 3240.000000   -22.929    60.122    17.951  -138.587   -21.901   158.685   -22.797   -65.133 
 3280.000000   -22.857    61.094    17.864  -142.099   -21.884   156.253   -23.090   -67.102 
 3310.000000   -23.309    54.045    17.804  -144.841   -21.818   153.959   -23.171   -67.545 
 3350.000000   -22.359    54.410    17.767  -148.412   -21.769   151.137   -23.501   -71.847 
 3380.000000   -22.788    51.764    17.657  -151.151   -21.742   149.079   -23.489   -74.718 
 3420.000000   -22.286    47.282    17.605  -154.527   -21.731   146.368   -23.580   -79.212 
 3450.000000   -22.609    49.905    17.546  -157.052   -21.693   144.369   -24.410   -80.960 
 3490.000000   -21.652    44.816    17.497  -160.765   -21.616   141.966   -24.331   -81.870 
 3520.000000   -21.709    43.255    17.429  -163.227   -21.616   139.851   -24.389   -85.197 
 3560.000000   -21.199    36.052    17.345  -167.004   -21.480   136.818   -24.480   -89.072 
 3590.000000   -21.224    36.585    17.318  -169.660   -21.459   134.462   -24.440   -91.169 
 3630.000000   -21.493    30.009    17.218  -173.009   -21.440   131.478   -24.716   -94.907 
 3660.000000   -20.819    30.126    17.187  -175.820   -21.376   129.737   -24.882   -98.362 
 3700.000000   -21.585    25.876    17.084  -179.095   -21.340   126.866   -25.076  -102.666 
 3730.000000   -20.852    26.756    17.053   178.045   -21.276   124.905   -25.544  -102.798 
 3770.000000   -21.258    21.089    17.015   174.707   -21.234   121.971   -25.824  -107.026 
 3800.000000   -20.842    18.334    16.966   172.042   -21.164   120.164   -25.885  -108.760 
 3840.000000   -21.053    17.020    16.881   168.519   -21.108   117.059   -25.700  -110.882 
 3870.000000   -20.772     8.937    16.826   165.852   -21.063   114.930   -25.446  -115.387 
 3910.000000   -21.180    11.171    16.741   162.246   -21.032   112.020   -25.813  -122.538 
 3940.000000   -20.934     4.440    16.691   159.917   -21.042   109.715   -25.811  -126.698 
 3980.000000   -20.795     5.519    16.630   156.149   -20.955   106.783   -26.151  -127.855 
 4010.000000   -21.310     0.784    16.589   153.572   -20.911   104.742   -26.556  -134.068 
 4050.000000   -20.585    -0.423    16.558   150.181   -20.852   102.034   -26.484  -132.455 
 4080.000000   -21.197    -4.345    16.498   147.500   -20.805    99.896   -26.246  -136.813 
 4120.000000   -20.941    -8.887    16.388   143.811   -20.749    96.640   -26.144  -145.004 
 4150.000000   -21.377    -8.575    16.338   141.604   -20.743    94.949   -26.800  -147.830 
 4190.000000   -20.626   -12.557    16.313   138.243   -20.761    91.878   -26.873  -151.137 
 4220.000000   -21.079   -16.122    16.238   135.417   -20.683    89.868   -26.604  -155.561 
 4260.000000   -20.582   -21.202    16.179   132.069   -20.625    86.939   -26.464  -159.660 
 4290.000000   -20.904   -21.328    16.132   129.420   -20.556    84.756   -26.437  -160.227 
 4330.000000   -20.979   -30.846    16.102   125.775   -20.486    81.840   -26.167  -165.645 
 4360.000000   -20.876   -30.421    16.013   123.311   -20.435    79.339   -25.620  -172.191 
 4400.000000   -21.295   -33.527    15.955   119.995   -20.432    77.068   -26.587  -175.910 
 4430.000000   -20.939   -35.581    15.935   117.369   -20.367    74.444   -26.246  -177.499 
 4470.000000   -21.874   -42.292    15.864   113.636   -20.302    71.780   -25.695   177.722 
 4500.000000   -21.555   -45.316    15.810   111.193   -20.300    69.829   -25.480   173.510 
 4540.000000   -22.012   -50.165    15.712   107.730   -20.233    66.613   -25.011   169.301 
 4570.000000   -21.606   -51.912    15.685   105.299   -20.220    64.121   -25.089   163.870 
 4610.000000   -22.058   -52.834    15.619   101.713   -20.226    61.481   -25.247   159.097 
 4640.000000   -21.528   -59.253    15.616    99.199   -20.161    59.160   -25.160   159.243 
 4680.000000   -21.951   -62.219    15.520    95.781   -20.092    56.437   -24.633   154.579 
 4710.000000   -22.070   -69.111    15.498    93.098   -20.043    54.093   -24.576   151.405 
 4750.000000   -22.273   -71.661    15.455    89.667   -19.949    51.285   -24.252   148.757 
 4780.000000   -22.826   -78.944    15.350    86.927   -19.963    48.803   -23.711   146.489 
 4820.000000   -22.672   -79.870    15.307    83.593   -19.880    45.999   -23.161   140.468 
 4850.000000   -23.304   -82.416    15.221    81.318   -19.911    43.414   -23.158   135.815 
