! Mini-Circuits  
! S2P DATA File Format
! Type: MMIC Amplifier
! Model: LEE-39+
! TEST CONDITIONS: INPUT POWER = -25dBm, Icc = 42mA, Vd = 3.46V @Temperature = +85degC
! 401 Frequency points
!
! S Parameters are in dB deg format
!
# MHz S DB R 50
!    FREQ       dB(S11)   PHS(S11)  dB(S21)   PHS(S21)  dB(S12)   PHS(S12)  dB(S22)   PHS(S22) 
   50.000000   -25.250  -179.633    23.607   173.736   -25.570    -4.948   -23.217   175.271 
   65.000000   -26.133   172.142    23.613   172.248   -26.058    -3.221   -22.143   173.224 
   80.000000   -25.698   169.436    23.648   170.543   -25.759    -4.832   -21.584   175.390 
   95.000000   -25.550   168.019    23.576   168.860   -25.801    -5.681   -21.547   174.537 
  110.000000   -24.646   168.957    23.555   167.232   -25.874    -5.990   -21.449   173.253 
  125.000000   -24.969   167.619    23.539   165.693   -25.874    -6.591   -21.419   173.246 
  140.000000   -24.411   162.752    23.554   163.950   -25.854    -7.354   -21.186   171.080 
  155.000000   -24.426   163.912    23.549   162.231   -25.705    -7.965   -20.829   170.019 
  170.000000   -24.218   162.770    23.522   160.616   -25.929    -8.912   -20.638   169.473 
  185.000000   -23.873   161.428    23.491   159.069   -25.789    -9.471   -20.422   168.256 
  200.000000   -24.126   162.131    23.454   157.416   -25.818   -10.543   -20.494   168.208 
  215.000000   -24.248   159.115    23.471   155.826   -25.794   -11.086   -20.475   168.004 
  230.000000   -24.511   157.693    23.467   154.077   -25.826   -11.939   -20.592   166.965 
  245.000000   -24.096   158.451    23.462   152.349   -25.806   -12.493   -20.171   166.025 
  260.000000   -23.838   156.788    23.401   150.768   -25.822   -13.387   -20.424   165.703 
  275.000000   -24.081   155.797    23.374   149.121   -25.743   -14.153   -20.331   164.220 
  290.000000   -24.983   153.492    23.359   147.583   -25.764   -14.311   -20.693   165.143 
  305.000000   -25.056   152.083    23.379   145.955   -25.772   -16.274   -20.503   164.157 
  320.000000   -25.339   151.023    23.344   144.403   -25.732   -16.453   -20.738   163.563 
  335.000000   -24.809   148.021    23.349   142.638   -25.719   -17.530   -20.431   162.291 
  350.000000   -25.656   148.365    23.298   141.001   -25.748   -17.949   -20.531   161.088 
  365.000000   -25.227   147.242    23.281   139.453   -25.688   -18.503   -20.473   160.654 
  380.000000   -26.180   145.670    23.244   137.946   -25.710   -19.722   -20.928   160.559 
  395.000000   -25.980   144.437    23.264   136.209   -25.679   -20.592   -20.878   160.092 
  410.000000   -26.508   140.158    23.234   134.629   -25.617   -21.169   -20.950   159.743 
  425.000000   -26.117   139.088    23.218   132.952   -25.625   -21.895   -20.597   157.176 
  440.000000   -26.185   138.190    23.162   131.433   -25.674   -22.323   -20.652   156.034 
  455.000000   -26.241   137.299    23.137   129.830   -25.647   -23.484   -20.666   154.996 
  470.000000   -26.943   132.689    23.130   128.403   -25.624   -24.012   -20.823   154.189 
  485.000000   -26.481   132.360    23.122   126.660   -25.584   -24.952   -20.827   153.333 
  500.000000   -26.820   132.577    23.095   125.132   -25.598   -25.678   -20.640   152.174 
  515.000000   -26.323   128.380    23.061   123.588   -25.630   -26.719   -20.426   150.527 
  530.000000   -26.141   128.532    23.033   121.990   -25.570   -27.303   -20.352   148.527 
  545.000000   -26.896   126.609    22.996   120.465   -25.550   -28.097   -20.596   148.676 
  560.000000   -26.719   125.542    23.017   118.793   -25.551   -29.153   -20.420   146.421 
  575.000000   -27.172   125.476    22.972   117.254   -25.533   -29.996   -20.464   145.741 
  590.000000   -25.966   124.704    22.971   115.646   -25.575   -30.737   -20.051   142.505 
  605.000000   -26.595   120.888    22.890   114.050   -25.533   -31.531   -20.150   142.248 
  620.000000   -26.319   119.630    22.880   112.607   -25.517   -32.488   -19.980   140.915 
  635.000000   -26.948   119.624    22.852   111.011   -25.492   -32.925   -20.227   139.226 
  650.000000   -26.632   116.424    22.859   109.408   -25.487   -34.126   -20.083   138.875 
  665.000000   -26.862   116.592    22.823   107.905   -25.444   -34.607   -20.008   137.073 
  680.000000   -26.418   114.732    22.797   106.404   -25.461   -35.746   -19.813   135.146 
  695.000000   -26.348   112.205    22.761   104.919   -25.448   -36.465   -19.761   134.207 
  710.000000   -26.376   111.412    22.718   103.379   -25.441   -37.071   -19.936   133.780 
  725.000000   -26.915   108.525    22.726   101.788   -25.347   -37.783   -19.833   132.771 
  740.000000   -27.137   107.003    22.674   100.235   -25.372   -38.988   -19.958   131.549 
  755.000000   -26.641   105.813    22.646    98.761   -25.322   -39.515   -19.628   129.711 
  770.000000   -26.947   103.828    22.628    97.189   -25.351   -40.440   -19.734   129.075 
  785.000000   -27.124   100.899    22.618    95.569   -25.350   -41.253   -19.719   127.703 
  800.000000   -26.884   102.853    22.593    94.074   -25.308   -42.183   -19.581   125.358 
  815.000000   -27.187    98.054    22.550    92.514   -25.329   -42.995   -19.634   124.386 
  830.000000   -26.907    96.492    22.511    91.033   -25.290   -43.655   -19.518   122.896 
  845.000000   -28.024    94.539    22.473    89.480   -25.254   -44.483   -19.728   122.722 
  860.000000   -27.500    92.225    22.476    87.981   -25.204   -45.420   -19.708   121.375 
  875.000000   -27.865    90.211    22.443    86.507   -25.241   -46.139   -19.843   120.510 
  890.000000   -27.287    89.895    22.434    84.845   -25.188   -46.966   -19.431   117.901 
  905.000000   -27.615    88.675    22.369    83.393   -25.226   -48.063   -19.472   117.055 
  920.000000   -27.480    87.068    22.350    81.946   -25.169   -48.760   -19.361   115.242 
  935.000000   -28.175    85.528    22.311    80.416   -25.171   -49.631   -19.582   114.807 
  950.000000   -28.178    83.421    22.316    78.798   -25.156   -50.396   -19.533   113.507 
  965.000000   -28.388    82.127    22.276    77.339   -25.152   -51.158   -19.493   112.230 
  980.000000   -27.875    79.948    22.249    75.913   -25.127   -52.014   -19.314   110.129 
  995.000000   -28.002    78.265    22.203    74.463   -25.123   -52.892   -19.238   109.064 
 1010.000000   -28.016    78.354    22.179    72.976   -25.101   -53.651   -19.287   107.764 
 1025.000000   -28.141    75.885    22.155    71.418   -25.072   -54.795   -19.302   107.032 
 1040.000000   -28.366    75.630    22.132    69.929   -25.030   -55.562   -19.436   105.851 
 1055.000000   -27.931    71.094    22.116    68.384   -25.001   -56.407   -19.077   104.144 
 1070.000000   -28.202    69.603    22.050    67.064   -25.027   -56.979   -19.153   102.515 
 1085.000000   -27.695    68.347    22.032    65.446   -24.989   -58.348   -18.955   100.952 
 1100.000000   -28.603    67.927    21.990    64.059   -24.989   -58.879   -19.176   100.717 
 1115.000000   -28.380    68.223    21.983    62.513   -24.965   -59.747   -19.010    99.211 
 1130.000000   -28.631    66.479    21.969    60.981   -24.902   -60.855   -19.012    98.495 
 1145.000000   -28.171    62.441    21.943    59.406   -24.917   -61.508   -18.808    96.008 
 1160.000000   -28.476    61.789    21.879    58.021   -24.891   -62.375   -18.845    95.003 
 1175.000000   -28.242    61.003    21.853    56.569   -24.895   -63.314   -18.887    93.798 
 1190.000000   -28.844    58.564    21.833    55.122   -24.858   -64.268   -18.909    92.827 
 1205.000000   -29.253    56.766    21.815    53.612   -24.858   -64.825   -18.881    91.683 
 1220.000000   -28.823    58.770    21.782    52.109   -24.824   -65.856   -18.725    90.235 
 1235.000000   -28.698    57.651    21.746    50.627   -24.848   -66.688   -18.709    88.873 
 1250.000000   -28.283    57.449    21.721    49.234   -24.800   -67.624   -18.599    87.201 
 1265.000000   -29.043    53.835    21.679    47.821   -24.809   -68.222   -18.789    87.045 
 1280.000000   -29.291    50.569    21.660    46.266   -24.743   -69.211   -18.696    85.362 
 1295.000000   -29.692    50.720    21.643    44.829   -24.719   -70.283   -18.777    84.547 
 1310.000000   -28.823    47.848    21.620    43.301   -24.723   -71.102   -18.525    82.150 
 1325.000000   -29.173    48.227    21.561    41.942   -24.758   -71.734   -18.584    81.748 
 1340.000000   -28.870    48.467    21.533    40.436   -24.688   -72.726   -18.431    79.998 
 1355.000000   -29.671    47.786    21.496    39.036   -24.656   -73.459   -18.619    79.852 
 1370.000000   -29.598    46.381    21.481    37.536   -24.630   -74.596   -18.552    78.100 
 1385.000000   -29.839    45.560    21.452    36.131   -24.601   -75.474   -18.491    76.872 
 1400.000000   -29.576    41.105    21.414    34.586   -24.581   -76.262   -18.280    75.236 
 1415.000000   -29.620    40.273    21.359    33.281   -24.592   -77.039   -18.294    73.928 
 1430.000000   -30.021    40.744    21.336    31.756   -24.565   -78.123   -18.405    73.544 
 1445.000000   -30.037    40.722    21.325    30.332   -24.518   -78.964   -18.389    72.285 
 1460.000000   -30.020    40.625    21.288    28.907   -24.516   -79.940   -18.452    71.727 
 1475.000000   -29.721    36.457    21.271    27.412   -24.468   -80.780   -18.160    69.100 
 1490.000000   -29.870    37.171    21.210    26.031   -24.506   -81.527   -18.213    68.498 
 1505.000000   -30.820    40.705    21.202    24.564   -24.452   -82.737   -18.336    67.857 
 1520.000000   -30.042    35.868    21.197    23.015   -24.432   -83.346   -18.043    65.765 
 1535.000000   -29.955    34.542    21.132    21.635   -24.434   -84.328   -17.937    65.372 
 1550.000000   -29.400    25.136    21.077    20.102   -24.440   -84.910   -17.959    61.786 
 1565.000000   -31.282    29.154    21.052    18.894   -24.390   -85.843   -18.205    63.364 
 1580.000000   -30.967    33.392    21.036    17.317   -24.370   -86.834   -18.113    61.886 
 1600.000000   -31.684    30.394    20.999    15.511   -24.298   -88.061   -18.103    59.735 
 1615.000000   -31.173    29.444    20.969    14.085   -24.305   -89.062   -18.042    58.708 
 1635.000000   -31.056    25.073    20.921    12.225   -24.307   -89.968   -17.893    57.004 
 1650.000000   -32.108    25.311    20.883    10.806   -24.265   -90.861   -18.047    57.422 
 1670.000000   -31.757    25.585    20.871     8.857   -24.203   -92.207   -17.989    55.705 
 1685.000000   -32.303    23.917    20.817     7.399   -24.180   -93.175   -17.970    54.560 
 1705.000000   -32.233    20.912    20.771     5.616   -24.167   -94.156   -17.877    52.428 
 1720.000000   -31.739    21.376    20.736     4.139   -24.183   -95.291   -17.880    51.030 
 1740.000000   -33.741    23.232    20.692     2.251   -24.133   -96.552   -18.052    50.544 
 1755.000000   -33.670    20.704    20.687     0.795   -24.126   -97.398   -17.974    49.259 
 1775.000000   -33.315    21.025    20.629    -1.002   -24.046   -98.566   -17.917    47.623 
 1790.000000   -33.277    19.354    20.604    -2.413   -24.056   -99.392   -17.843    46.431 
 1810.000000   -33.321    16.175    20.552    -4.348   -24.057  -100.573   -17.762    44.067 
 1825.000000   -34.799    24.338    20.516    -5.681   -24.030  -101.541   -17.921    44.061 
 1845.000000   -35.314    22.493    20.478    -7.589   -23.992  -102.865   -17.971    42.046 
 1860.000000   -34.444    14.534    20.451    -8.979   -23.933  -103.595   -17.856    40.811 
 1880.000000   -34.627    14.628    20.391   -10.837   -23.925  -104.515   -17.915    39.870 
 1895.000000   -35.384    13.088    20.375   -12.206   -23.932  -105.787   -17.833    38.375 
 1915.000000   -38.130    19.294    20.324   -13.952   -23.858  -106.927   -17.983    37.933 
 1930.000000   -37.432    20.109    20.314   -15.458   -23.835  -107.968   -18.034    36.222 
 1950.000000   -37.555    19.554    20.270   -17.348   -23.815  -109.184   -17.966    34.332 
 1965.000000   -38.228    17.980    20.221   -18.665   -23.829  -109.984   -17.907    33.310 
 1985.000000   -38.319    25.588    20.193   -20.544   -23.775  -111.125   -17.867    31.850 
 2000.000000   -40.338    18.175    20.149   -21.891   -23.749  -112.169   -18.042    31.486 
 2020.000000   -40.294    33.312    20.116   -23.751   -23.721  -113.455   -18.056    30.237 
 2050.000000   -37.322    33.855    20.053   -26.613   -23.693  -115.358   -18.049    27.202 
 2090.000000   -42.473    39.956    19.985   -30.317   -23.628  -117.892   -18.068    23.677 
 2120.000000   -43.174     4.608    19.892   -33.012   -23.563  -119.362   -18.135    22.036 
 2160.000000   -41.563   101.576    19.813   -36.565   -23.503  -122.071   -18.293    19.591 
 2190.000000   -47.227    65.780    19.751   -39.482   -23.513  -124.372   -18.373    16.269 
 2230.000000   -42.574   124.539    19.684   -42.917   -23.401  -126.226   -18.409    13.639 
 2260.000000   -41.572   129.918    19.632   -45.678   -23.401  -128.164   -18.603    13.188 
 2300.000000   -35.310   120.262    19.529   -49.317   -23.292  -130.780   -18.784     9.995 
 2330.000000   -35.491   126.192    19.473   -52.016   -23.196  -132.966   -18.895     8.024 
 2370.000000   -34.056   112.129    19.418   -55.798   -23.190  -135.194   -18.832     4.892 
 2400.000000   -33.470   122.652    19.347   -58.584   -23.150  -137.176   -18.929     2.661 
 2440.000000   -31.626   117.640    19.266   -62.160   -23.093  -139.553   -19.218    -0.305 
 2470.000000   -31.321   122.839    19.193   -64.841   -23.053  -141.894   -19.256    -3.374 
 2510.000000   -31.182   119.403    19.127   -68.410   -22.980  -144.343   -19.292    -6.836 
 2540.000000   -30.457   117.797    19.056   -71.065   -22.954  -146.165   -19.396    -8.102 
 2580.000000   -30.529   113.907    18.943   -74.682   -22.907  -148.596   -19.343   -11.052 
 2610.000000   -29.010   114.759    18.879   -77.188   -22.895  -150.279   -19.775   -14.877 
 2650.000000   -28.578   112.280    18.792   -80.716   -22.799  -153.265   -19.863   -17.588 
 2680.000000   -27.471   108.853    18.750   -83.476   -22.759  -154.946   -20.046   -18.168 
 2720.000000   -27.164   104.999    18.636   -86.919   -22.679  -157.536   -20.171   -21.871 
 2750.000000   -26.777   102.466    18.622   -89.886   -22.603  -159.972   -20.160   -24.640 
 2790.000000   -26.409   101.669    18.537   -93.200   -22.611  -162.490   -20.440   -27.016 
 2820.000000   -25.809    99.838    18.473   -96.010   -22.488  -164.269   -20.515   -28.703 
 2860.000000   -25.305    95.786    18.380   -99.354   -22.492  -166.915   -20.762   -32.370 
 2890.000000   -25.086    96.796    18.332  -101.999   -22.441  -168.720   -20.894   -34.437 
 2930.000000   -25.362    93.717    18.261  -105.566   -22.408  -171.613   -20.980   -38.295 
 2960.000000   -24.591    89.787    18.168  -108.093   -22.328  -173.487   -21.158   -39.246 
 3000.000000   -24.192    87.381    18.125  -111.610   -22.265  -175.854   -21.234   -42.550 
 3030.000000   -23.656    86.020    18.053  -114.283   -22.264  -178.077   -21.309   -44.665 
 3070.000000   -23.697    81.923    17.969  -117.855   -22.160   179.096   -21.500   -46.076 
 3100.000000   -23.154    79.304    17.922  -120.390   -22.114   177.156   -21.578   -49.919 
 3140.000000   -23.619    79.820    17.831  -123.909   -22.065   174.574   -21.511   -53.036 
 3170.000000   -23.217    75.549    17.743  -126.674   -22.066   172.615   -21.715   -56.006 
 3210.000000   -22.873    76.304    17.685  -129.753   -22.001   170.254   -22.122   -58.479 
 3240.000000   -22.710    70.659    17.658  -132.560   -21.949   168.067   -22.129   -61.322 
 3280.000000   -22.855    71.472    17.561  -136.147   -21.891   165.218   -22.245   -64.671 
 3310.000000   -22.890    65.165    17.492  -138.646   -21.820   163.463   -22.411   -66.136 
 3350.000000   -21.942    64.709    17.429  -141.987   -21.782   160.661   -22.654   -68.488 
 3380.000000   -22.314    63.320    17.342  -144.578   -21.748   158.553   -22.928   -71.206 
 3420.000000   -21.746    58.877    17.289  -148.133   -21.666   155.841   -22.902   -74.631 
 3450.000000   -22.190    58.995    17.219  -150.559   -21.668   153.799   -23.145   -77.985 
 3490.000000   -21.448    56.617    17.165  -153.982   -21.597   151.477   -23.602   -77.914 
 3520.000000   -21.647    54.838    17.116  -156.515   -21.509   149.378   -23.741   -80.091 
 3560.000000   -21.332    48.250    17.049  -160.188   -21.444   146.679   -23.391   -85.190 
 3590.000000   -21.295    48.509    17.017  -162.776   -21.392   144.583   -23.406   -86.116 
 3630.000000   -21.480    42.203    16.904  -166.112   -21.417   141.847   -23.788   -89.124 
 3660.000000   -21.133    42.760    16.858  -168.788   -21.336   139.597   -23.772   -93.080 
 3700.000000   -22.132    40.793    16.708  -171.833   -21.373   136.857   -23.821  -101.174 
 3730.000000   -20.595    38.648    16.740  -174.603   -21.243   135.226   -24.493   -96.652 
 3770.000000   -21.485    32.311    16.642  -177.966   -21.214   132.358   -24.287  -102.647 
 3800.000000   -20.908    30.798    16.607   179.491   -21.149   130.375   -24.565  -103.474 
 3840.000000   -21.344    30.713    16.553   176.067   -21.095   127.597   -24.703  -105.343 
 3870.000000   -20.887    21.759    16.515   173.423   -21.029   125.497   -24.398  -108.451 
 3910.000000   -21.597    22.733    16.394   169.860   -20.977   122.309   -24.264  -115.354 
 3940.000000   -21.254    17.912    16.333   167.742   -21.004   120.415   -24.954  -118.930 
 3980.000000   -21.421    19.118    16.268   163.942   -20.922   117.648   -24.655  -122.574 
 4010.000000   -21.397    14.887    16.225   161.660   -20.927   115.867   -25.199  -128.079 
 4050.000000   -20.587    12.069    16.192   158.389   -20.838   113.383   -25.467  -123.873 
 4080.000000   -21.221     7.096    16.146   155.667   -20.732   110.837   -25.073  -127.889 
 4120.000000   -21.003     3.120    16.066   152.038   -20.658   108.108   -24.779  -133.482 
 4150.000000   -21.655     1.371    15.967   149.748   -20.693   105.773   -25.007  -137.942 
 4190.000000   -21.091    -0.501    15.912   146.535   -20.668   103.107   -25.160  -144.780 
 4220.000000   -21.393    -3.285    15.876   143.918   -20.624   101.165   -25.522  -145.529 
 4260.000000   -21.420    -9.242    15.803   140.372   -20.539    98.299   -24.819  -152.263 
 4290.000000   -21.385    -6.576    15.749   138.198   -20.582    96.142   -25.445  -155.254 
 4330.000000   -21.312   -16.996    15.729   134.613   -20.468    93.736   -25.202  -157.599 
 4360.000000   -21.445   -17.485    15.634   132.226   -20.389    91.335   -24.823  -161.582 
 4400.000000   -21.825   -21.738    15.590   128.933   -20.388    88.610   -25.299  -167.234 
 4430.000000   -21.228   -22.809    15.560   126.343   -20.363    86.669   -25.077  -169.452 
 4470.000000   -21.949   -32.086    15.473   122.809   -20.265    83.999   -24.673  -172.633 
 4500.000000   -21.933   -35.464    15.414   120.302   -20.259    81.231   -24.386  -178.520 
 4540.000000   -22.508   -38.757    15.355   116.989   -20.209    78.334   -24.251   177.762 
 4570.000000   -22.317   -39.247    15.284   114.637   -20.212    76.110   -23.801   170.983 
 4610.000000   -22.332   -42.242    15.233   111.188   -20.180    74.142   -24.296   167.901 
 4640.000000   -21.857   -46.798    15.210   108.814   -20.138    72.121   -24.393   167.202 
 4680.000000   -22.545   -51.156    15.132   105.370   -20.056    69.030   -23.577   162.752 
 4710.000000   -22.153   -60.163    15.106   102.708   -20.008    66.919   -23.354   160.727 
 4750.000000   -22.846   -61.689    15.012    99.568   -19.959    63.790   -23.112   154.149 
 4780.000000   -22.762   -68.557    14.970    96.828   -19.899    61.665   -22.905   155.164 
 4820.000000   -23.165   -74.291    14.914    93.297   -19.819    58.378   -21.934   151.244 
 4850.000000   -24.268   -69.290    14.818    91.682   -19.952    56.215   -22.232   141.114 
