! Mini-Circuits  
! S2P DATA File Format
! Type: MMIC Amplifier
! Model: LEE-39+
! TEST CONDITIONS: INPUT POWER = -25dBm, Icc = 42mA, Vd = 3.62V @Temperature = +25degC
! 401 Frequency points
!
! S Parameters are in dB deg format
!
# MHz S DB R 50
!    FREQ       dB(S11)   PHS(S11)  dB(S21)   PHS(S21)  dB(S12)   PHS(S12)  dB(S22)   PHS(S22) 
   50.000000   -22.282  -179.348    23.895   173.680   -25.997    -1.924   -20.228   174.711 
   65.000000   -22.820   173.603    23.893   172.212   -26.132    -2.572   -19.854   172.660 
   80.000000   -23.498   171.982    23.960   170.444   -25.971    -4.055   -19.681   174.494 
   95.000000   -22.971   169.277    23.921   168.850   -26.176    -5.956   -20.136   173.820 
  110.000000   -22.719   169.666    23.906   167.107   -26.214    -5.900   -19.978   173.171 
  125.000000   -22.688   167.827    23.854   165.497   -26.040    -6.820   -20.111   172.753 
  140.000000   -22.999   163.582    23.861   163.804   -26.204    -7.208   -19.691   170.254 
  155.000000   -23.139   163.704    23.833   162.036   -26.124    -7.889   -19.725   169.102 
  170.000000   -23.302   162.834    23.861   160.377   -26.136    -8.926   -19.502   168.712 
  185.000000   -22.858   160.734    23.828   158.789   -26.097    -9.573   -19.872   167.956 
  200.000000   -22.789   160.212    23.812   157.070   -26.166   -10.536   -19.633   167.433 
  215.000000   -23.014   157.490    23.775   155.490   -26.074   -12.164   -19.835   166.532 
  230.000000   -23.248   156.222    23.788   153.727   -26.103   -12.673   -19.404   164.688 
  245.000000   -23.260   156.383    23.761   152.003   -26.006   -13.139   -19.616   164.265 
  260.000000   -22.624   154.501    23.761   150.402   -26.072   -13.704   -19.525   163.788 
  275.000000   -22.810   152.126    23.733   148.653   -26.069   -14.095   -19.762   162.498 
  290.000000   -22.832   150.261    23.714   147.057   -26.125   -15.570   -19.514   161.179 
  305.000000   -23.186   148.928    23.674   145.415   -25.950   -15.979   -19.382   160.119 
  320.000000   -23.005   148.360    23.655   143.870   -25.994   -17.104   -19.152   158.602 
  335.000000   -23.154   147.074    23.648   142.134   -26.060   -17.727   -19.195   157.867 
  350.000000   -23.027   146.608    23.646   140.353   -26.098   -18.678   -19.157   156.121 
  365.000000   -22.809   145.350    23.630   138.833   -26.053   -19.441   -19.199   155.765 
  380.000000   -22.752   143.233    23.583   137.193   -25.967   -20.134   -19.196   154.194 
  395.000000   -23.024   142.607    23.559   135.552   -25.939   -21.028   -19.020   153.132 
  410.000000   -22.984   139.528    23.539   133.991   -25.988   -21.811   -18.903   152.440 
  425.000000   -23.217   138.887    23.546   132.288   -25.971   -23.053   -18.727   150.453 
  440.000000   -22.624   137.128    23.499   130.659   -25.942   -23.476   -18.884   149.550 
  455.000000   -22.805   136.576    23.491   129.036   -25.955   -24.395   -18.808   148.433 
  470.000000   -22.707   132.988    23.450   127.542   -25.906   -25.362   -18.929   147.124 
  485.000000   -22.857   132.068    23.429   125.862   -25.908   -25.959   -18.621   145.642 
  500.000000   -23.028   131.716    23.377   124.222   -25.827   -26.786   -18.611   144.842 
  515.000000   -22.992   128.384    23.409   122.620   -25.906   -27.651   -18.369   143.420 
  530.000000   -22.529   128.028    23.366   121.030   -25.887   -28.580   -18.617   142.381 
  545.000000   -22.595   126.071    23.347   119.531   -25.881   -29.330   -18.538   141.578 
  560.000000   -22.963   125.212    23.316   117.883   -25.866   -30.359   -18.566   139.675 
  575.000000   -22.978   123.745    23.282   116.247   -25.833   -30.978   -18.340   138.600 
  590.000000   -22.837   123.335    23.264   114.605   -25.839   -32.012   -18.275   136.585 
  605.000000   -22.718   119.475    23.255   112.985   -25.808   -32.686   -18.289   135.876 
  620.000000   -22.829   118.423    23.235   111.589   -25.801   -33.630   -18.304   134.834 
  635.000000   -22.554   117.512    23.189   109.884   -25.736   -34.231   -18.327   132.618 
  650.000000   -22.913   115.710    23.173   108.375   -25.751   -35.433   -18.195   132.147 
  665.000000   -22.812   114.807    23.125   106.816   -25.721   -35.689   -18.075   130.408 
  680.000000   -23.076   113.630    23.126   105.184   -25.720   -37.073   -18.014   128.992 
  695.000000   -22.503   110.808    23.103   103.742   -25.766   -37.577   -18.109   127.878 
  710.000000   -22.314   109.625    23.075   102.094   -25.737   -38.542   -18.020   126.735 
  725.000000   -22.703   107.514    23.025   100.591   -25.634   -39.702   -18.097   126.111 
  740.000000   -22.719   105.981    23.003    99.021   -25.648   -40.353   -17.827   123.976 
  755.000000   -22.585   104.946    23.007    97.436   -25.671   -40.983   -17.898   123.145 
  770.000000   -22.327   103.005    22.946    95.875   -25.615   -41.938   -17.932   121.911 
  785.000000   -22.883   101.219    22.947    94.229   -25.608   -42.755   -17.666   119.863 
  800.000000   -22.767   101.799    22.893    92.737   -25.584   -43.711   -17.768   118.031 
  815.000000   -22.987    99.348    22.894    91.072   -25.563   -44.631   -17.634   117.186 
  830.000000   -22.558    97.127    22.859    89.577   -25.565   -45.438   -17.842   116.518 
  845.000000   -22.842    95.382    22.846    87.997   -25.570   -46.405   -17.678   114.988 
  860.000000   -22.664    93.623    22.788    86.613   -25.494   -47.369   -17.776   113.965 
  875.000000   -22.811    92.052    22.770    85.011   -25.517   -48.068   -17.572   112.219 
  890.000000   -22.998    91.822    22.742    83.430   -25.472   -49.075   -17.574   110.715 
  905.000000   -22.786    90.225    22.723    81.831   -25.482   -49.757   -17.516   109.615 
  920.000000   -22.856    88.622    22.697    80.278   -25.473   -50.778   -17.652   108.401 
  935.000000   -22.657    86.585    22.653    78.848   -25.449   -51.489   -17.591   106.919 
  950.000000   -23.162    85.301    22.625    77.189   -25.415   -52.545   -17.485   105.599 
  965.000000   -23.071    84.192    22.591    75.761   -25.415   -53.474   -17.429   104.417 
  980.000000   -23.225    83.068    22.590    74.209   -25.405   -54.145   -17.339   102.615 
  995.000000   -22.825    80.907    22.559    72.661   -25.409   -55.027   -17.464   102.097 
 1010.000000   -22.876    80.494    22.552    71.233   -25.371   -55.665   -17.409   100.265 
 1025.000000   -22.807    78.182    22.477    69.657   -25.337   -56.859   -17.495    99.537 
 1040.000000   -23.131    77.706    22.463    68.079   -25.313   -57.661   -17.320    97.269 
 1055.000000   -23.238    74.280    22.426    66.630   -25.291   -58.682   -17.309    96.914 
 1070.000000   -23.229    72.959    22.422    65.111   -25.293   -59.358   -17.223    94.913 
 1085.000000   -22.955    71.549    22.386    63.486   -25.268   -60.463   -17.376    94.103 
 1100.000000   -22.974    70.740    22.360    62.068   -25.255   -61.115   -17.296    92.757 
 1115.000000   -23.257    70.948    22.308    60.655   -25.191   -62.168   -17.302    91.589 
 1130.000000   -23.259    69.113    22.293    59.121   -25.189   -63.145   -17.168    90.113 
 1145.000000   -23.637    66.867    22.274    57.505   -25.208   -63.879   -17.143    88.684 
 1160.000000   -23.294    65.198    22.240    55.999   -25.169   -64.769   -17.190    87.419 
 1175.000000   -23.298    64.126    22.218    54.515   -25.171   -65.774   -17.254    86.608 
 1190.000000   -23.178    61.900    22.168    53.038   -25.130   -66.398   -17.231    85.208 
 1205.000000   -23.817    61.155    22.153    51.577   -25.141   -67.332   -17.060    83.570 
 1220.000000   -23.586    61.456    22.098    50.057   -25.074   -68.346   -17.082    82.595 
 1235.000000   -23.746    60.197    22.100    48.577   -25.078   -69.046   -17.018    81.077 
 1250.000000   -23.283    58.694    22.078    47.022   -25.066   -70.010   -17.203    80.471 
 1265.000000   -23.527    55.989    22.040    45.619   -25.080   -71.203   -17.146    79.113 
 1280.000000   -23.751    53.774    21.989    44.188   -25.010   -71.747   -17.230    77.765 
 1295.000000   -23.933    52.990    21.974    42.624   -25.009   -72.945   -16.998    75.888 
 1310.000000   -23.998    51.960    21.948    41.148   -24.957   -73.892   -17.046    74.852 
 1325.000000   -23.822    50.550    21.935    39.598   -24.974   -74.711   -16.992    73.903 
 1340.000000   -23.828    50.139    21.893    38.147   -24.934   -75.549   -17.096    73.064 
 1355.000000   -23.804    48.741    21.859    36.667   -24.920   -76.208   -17.110    71.917 
 1370.000000   -24.335    47.570    21.827    35.254   -24.900   -77.404   -17.104    70.244 
 1385.000000   -24.174    45.998    21.783    33.788   -24.881   -78.396   -17.017    68.734 
 1400.000000   -24.679    43.255    21.784    32.208   -24.857   -79.233   -16.944    67.673 
 1415.000000   -24.149    41.793    21.742    30.778   -24.842   -79.977   -17.053    66.616 
 1430.000000   -24.403    41.645    21.730    29.220   -24.817   -81.029   -17.082    65.561 
 1445.000000   -24.148    40.337    21.680    27.892   -24.794   -82.007   -17.115    64.688 
 1460.000000   -24.499    39.939    21.644    26.397   -24.746   -83.086   -16.970    62.943 
 1475.000000   -24.738    37.118    21.607    24.903   -24.750   -83.982   -16.975    61.391 
 1490.000000   -24.789    36.629    21.587    23.430   -24.764   -84.784   -16.929    60.187 
 1505.000000   -24.954    36.857    21.559    21.909   -24.699   -85.943   -16.987    58.747 
 1520.000000   -25.078    33.788    21.520    20.409   -24.685   -86.474   -16.996    57.751 
 1535.000000   -25.086    31.704    21.501    18.966   -24.672   -87.457   -16.914    56.695 
 1550.000000   -24.883    30.357    21.482    17.548   -24.663   -88.242   -17.080    56.086 
 1565.000000   -25.031    29.414    21.458    16.096   -24.619   -89.373   -17.039    54.973 
 1580.000000   -25.285    31.076    21.394    14.599   -24.621   -90.379   -17.076    53.743 
 1600.000000   -25.730    28.224    21.353    12.757   -24.583   -91.464   -17.017    51.239 
 1615.000000   -25.963    27.204    21.346    11.210   -24.555   -92.261   -17.020    50.044 
 1635.000000   -25.608    23.510    21.310     9.330   -24.508   -93.406   -17.123    49.145 
 1650.000000   -25.700    22.286    21.289     7.845   -24.521   -94.397   -17.049    48.293 
 1670.000000   -26.033    22.033    21.236     5.968   -24.432   -95.810   -17.050    46.626 
 1685.000000   -26.193    20.021    21.180     4.531   -24.441   -96.585   -17.012    45.348 
 1705.000000   -26.634    18.392    21.177     2.594   -24.414   -97.735   -16.964    43.198 
 1720.000000   -26.170    17.006    21.128     1.102   -24.412   -98.846   -17.185    42.820 
 1740.000000   -26.595    15.686    21.092    -0.842   -24.401  -100.037   -17.186    41.149 
 1755.000000   -27.062    14.398    21.050    -2.219   -24.356  -101.361   -17.146    39.977 
 1775.000000   -27.017    12.950    21.001    -4.079   -24.324  -102.493   -17.085    38.478 
 1790.000000   -27.513    11.623    21.005    -5.604   -24.318  -103.226   -17.012    37.001 
 1810.000000   -27.241    10.586    20.951    -7.564   -24.253  -104.482   -17.197    35.920 
 1825.000000   -27.360    11.159    20.922    -9.053   -24.247  -105.628   -17.178    34.545 
 1845.000000   -28.192     9.453    20.859   -10.867   -24.224  -106.467   -17.222    32.469 
 1860.000000   -27.724     4.475    20.822   -12.257   -24.197  -107.738   -17.169    31.470 
 1880.000000   -28.009     4.304    20.808   -14.188   -24.184  -108.988   -17.143    30.252 
 1895.000000   -28.259     2.436    20.775   -15.635   -24.131  -109.631   -17.320    29.770 
 1915.000000   -28.620     0.975    20.725   -17.470   -24.125  -110.871   -17.327    28.035 
 1930.000000   -29.080     1.360    20.695   -18.907   -24.078  -112.228   -17.374    26.403 
 1950.000000   -29.440    -0.154    20.636   -20.776   -24.064  -113.470   -17.394    24.572 
 1965.000000   -29.692    -2.371    20.639   -22.270   -24.042  -114.427   -17.259    22.975 
 1985.000000   -29.982    -1.731    20.594   -24.119   -24.030  -115.585   -17.434    22.323 
 2000.000000   -29.399    -6.770    20.568   -25.547   -23.991  -116.595   -17.402    21.659 
 2020.000000   -30.490    -5.192    20.516   -27.431   -23.925  -118.013   -17.385    19.635 
 2050.000000   -29.666    -1.939    20.450   -30.276   -23.922  -119.848   -17.498    16.866 
 2090.000000   -32.506    -8.230    20.371   -34.027   -23.785  -122.301   -17.635    13.820 
 2120.000000   -31.572   -21.049    20.321   -36.842   -23.808  -124.125   -17.521    11.591 
 2160.000000   -34.612    -9.528    20.227   -40.659   -23.760  -126.734   -17.708     8.389 
 2190.000000   -33.441   -23.315    20.182   -43.468   -23.728  -128.887   -17.931     6.266 
 2230.000000   -35.835   -26.179    20.097   -47.160   -23.610  -131.469   -17.994     3.507 
 2260.000000   -36.106   -33.276    20.061   -49.881   -23.583  -133.148   -18.040     2.388 
 2300.000000   -39.022   -12.811    19.973   -53.687   -23.486  -135.778   -18.181    -1.880 
 2330.000000   -40.032   -27.836    19.889   -56.277   -23.459  -137.974   -18.331    -3.440 
 2370.000000   -39.441    -2.348    19.803   -60.190   -23.408  -140.554   -18.304    -6.756 
 2400.000000   -47.294   -16.171    19.747   -62.836   -23.296  -142.984   -18.307    -9.531 
 2440.000000   -46.411    31.737    19.672   -66.647   -23.290  -145.083   -18.501   -12.368 
 2470.000000   -50.645    71.610    19.611   -69.493   -23.264  -147.497   -18.533   -14.567 
 2510.000000   -48.010    97.141    19.525   -72.988   -23.147  -149.711   -18.623   -18.576 
 2540.000000   -44.806   118.325    19.481   -75.801   -23.159  -151.727   -18.729   -20.435 
 2580.000000   -45.435   126.801    19.377   -79.439   -23.087  -154.231   -18.799   -22.738 
 2610.000000   -41.871   100.141    19.341   -82.186   -23.091  -156.427   -19.006   -25.418 
 2650.000000   -39.279   108.315    19.242   -85.768   -22.994  -159.103   -19.190   -28.272 
 2680.000000   -37.180   104.996    19.207   -88.539   -22.938  -161.202   -19.307   -29.768 
 2720.000000   -37.429    95.743    19.095   -92.138   -22.887  -164.066   -19.248   -33.726 
 2750.000000   -35.876   102.320    19.065   -95.064   -22.826  -165.803   -19.454   -36.720 
 2790.000000   -34.329   101.455    18.951   -98.363   -22.758  -168.768   -19.675   -38.253 
 2820.000000   -32.883   100.392    18.891  -101.260   -22.731  -170.759   -19.662   -41.325 
 2860.000000   -31.902    92.935    18.813  -104.769   -22.627  -173.320   -19.828   -44.681 
 2890.000000   -30.991    98.253    18.766  -107.550   -22.610  -175.292   -20.002   -46.580 
 2930.000000   -31.360    91.486    18.711  -111.197   -22.540  -178.052   -20.095   -49.895 
 2960.000000   -29.863    85.890    18.626  -113.772   -22.523  -179.993   -20.145   -51.282 
 3000.000000   -29.645    87.334    18.578  -117.335   -22.449   177.245   -20.490   -54.478 
 3030.000000   -28.320    82.721    18.513  -120.159   -22.441   175.076   -20.586   -56.078 
 3070.000000   -28.565    80.888    18.438  -123.806   -22.353   172.400   -20.531   -59.929 
 3100.000000   -27.758    74.333    18.392  -126.355   -22.321   170.444   -20.623   -62.350 
 3140.000000   -27.765    78.440    18.284  -129.874   -22.244   167.204   -20.816   -64.733 
 3170.000000   -27.115    69.313    18.233  -132.833   -22.225   165.280   -20.933   -67.287 
 3210.000000   -26.839    74.957    18.152  -136.143   -22.175   163.051   -21.168   -71.412 
 3240.000000   -26.863    68.468    18.129  -138.891   -22.094   160.616   -21.395   -73.476 
 3280.000000   -26.473    70.610    18.036  -142.410   -22.042   157.793   -21.668   -75.956 
 3310.000000   -26.774    60.932    17.982  -145.085   -22.002   155.705   -21.625   -77.796 
 3350.000000   -25.379    63.171    17.927  -148.558   -21.947   152.809   -21.976   -81.874 
 3380.000000   -26.155    61.229    17.820  -151.429   -21.930   150.779   -21.973   -84.628 
 3420.000000   -25.217    55.047    17.747  -154.829   -21.866   148.033   -22.061   -88.259 
 3450.000000   -25.173    58.612    17.696  -157.261   -21.870   146.070   -22.589   -91.656 
 3490.000000   -24.186    52.500    17.661  -160.914   -21.756   143.371   -22.635   -93.229 
 3520.000000   -24.518    52.001    17.595  -163.470   -21.722   141.283   -22.851   -94.875 
 3560.000000   -23.760    43.127    17.520  -167.118   -21.595   138.327   -22.854   -98.377 
 3590.000000   -23.635    44.294    17.488  -169.902   -21.596   136.327   -22.844  -101.277 
 3630.000000   -24.210    37.598    17.389  -173.185   -21.563   133.640   -23.030  -104.988 
 3660.000000   -23.499    38.978    17.362  -176.032   -21.520   131.289   -23.260  -107.323 
 3700.000000   -24.359    34.041    17.253  -179.308   -21.480   128.675   -23.438  -111.701 
 3730.000000   -22.964    34.254    17.215   177.901   -21.424   126.387   -23.745  -113.312 
 3770.000000   -23.657    28.852    17.182   174.609   -21.354   123.680   -23.976  -117.202 
 3800.000000   -23.168    25.531    17.101   171.909   -21.266   121.618   -24.081  -118.732 
 3840.000000   -23.445    25.665    17.039   168.387   -21.197   118.462   -24.035  -120.441 
 3870.000000   -23.062    15.029    16.992   165.774   -21.211   116.634   -23.791  -124.628 
 3910.000000   -23.408    20.215    16.902   162.155   -21.128   113.522   -23.922  -131.189 
 3940.000000   -23.569    13.023    16.851   159.788   -21.145   111.392   -24.074  -134.169 
 3980.000000   -23.102    14.239    16.791   156.146   -21.076   108.474   -24.402  -136.024 
 4010.000000   -23.532     8.756    16.742   153.637   -21.015   106.531   -24.482  -142.311 
 4050.000000   -22.583     7.163    16.694   150.136   -20.993   103.843   -24.442  -141.619 
 4080.000000   -23.555     4.306    16.643   147.451   -20.880   101.454   -24.380  -144.899 
 4120.000000   -23.095    -1.138    16.516   143.773   -20.868    98.384   -24.252  -151.696 
 4150.000000   -23.324    -0.966    16.458   141.516   -20.882    96.629   -24.672  -155.564 
 4190.000000   -22.474    -5.362    16.443   138.183   -20.804    93.534   -24.660  -158.811 
 4220.000000   -23.341    -7.586    16.377   135.400   -20.758    91.377   -24.675  -161.559 
 4260.000000   -22.707   -14.131    16.322   132.018   -20.694    88.582   -24.562  -165.386 
 4290.000000   -22.935   -13.678    16.287   129.412   -20.644    86.400   -24.534  -166.479 
 4330.000000   -23.229   -23.652    16.247   125.831   -20.582    83.490   -24.227  -171.307 
 4360.000000   -23.251   -21.351    16.150   123.338   -20.584    81.127   -23.938  -176.159 
 4400.000000   -23.710   -24.777    16.109   120.026   -20.560    78.541   -24.708  -179.931 
 4430.000000   -22.977   -28.190    16.072   117.340   -20.482    76.319   -24.265   178.123 
 4470.000000   -24.295   -34.485    15.997   113.777   -20.400    73.549   -23.853   174.097 
 4500.000000   -24.024   -37.431    15.939   111.257   -20.418    71.025   -23.750   170.352 
 4540.000000   -24.603   -43.151    15.848   107.733   -20.361    67.976   -23.421   166.238 
 4570.000000   -23.947   -44.775    15.816   105.304   -20.315    65.787   -23.432   162.104 
 4610.000000   -24.430   -44.366    15.756   101.921   -20.307    63.136   -23.527   157.804 
 4640.000000   -24.086   -51.342    15.726    99.410   -20.237    61.031   -23.575   157.837 
 4680.000000   -24.630   -53.621    15.661    95.880   -20.195    58.223   -23.180   153.462 
 4710.000000   -24.487   -62.343    15.629    93.334   -20.170    55.937   -23.081   150.264 
 4750.000000   -24.796   -65.022    15.589    89.782   -20.030    53.073   -22.700   147.546 
 4780.000000   -25.775   -72.864    15.479    87.110   -20.012    50.512   -22.287   145.377 
 4820.000000   -25.694   -72.298    15.413    83.718   -19.965    47.159   -21.909   140.348 
 4850.000000   -26.244   -75.581    15.357    81.600   -19.983    45.203   -21.903   135.664 
