! Mini-Circuits  
! S2P DATA File Format
! Type: MMIC Amplifier
! Model: LEE-39+
! TEST CONDITIONS: INPUT POWER = -25dBm, Icc = 28mA, Vd = 3.43V @Temperature = +85degC
! 401 Frequency points
!
! S Parameters are in dB deg format
!
# MHz S DB R 50
!    FREQ       dB(S11)   PHS(S11)  dB(S21)   PHS(S21)  dB(S12)   PHS(S12)  dB(S22)   PHS(S22) 
   50.000000   -25.142   -13.426    22.411   174.099   -24.684    -2.390   -27.907    -5.659 
   65.000000   -24.537    -8.403    22.452   172.564   -24.547    -3.923   -29.044    -7.876 
   80.000000   -24.820    -8.969    22.495   170.860   -24.945    -4.874   -30.769   -22.033 
   95.000000   -23.983    -9.518    22.418   169.352   -24.824    -5.697   -28.480   -20.352 
  110.000000   -25.076   -12.370    22.380   167.710   -24.836    -5.988   -29.457   -22.632 
  125.000000   -24.921   -15.257    22.346   166.163   -24.694    -7.449   -28.777   -27.673 
  140.000000   -26.499   -12.597    22.418   164.470   -24.655    -7.769   -32.339   -34.056 
  155.000000   -26.284   -17.220    22.397   162.828   -24.775    -7.928   -32.005   -41.036 
  170.000000   -25.928   -20.488    22.430   161.229   -24.698    -9.782   -33.245   -52.410 
  185.000000   -25.850   -21.992    22.324   159.693   -24.783   -10.076   -30.665   -44.163 
  200.000000   -25.798   -25.697    22.313   158.089   -24.711   -10.682   -31.291   -53.834 
  215.000000   -26.392   -26.862    22.268   156.527   -24.670   -11.760   -30.492   -55.908 
  230.000000   -26.662   -28.589    22.375   154.743   -24.637   -12.527   -32.309   -68.329 
  245.000000   -26.995   -32.961    22.322   153.093   -24.735   -13.128   -31.735   -72.132 
  260.000000   -26.319   -34.533    22.348   151.473   -24.778   -13.906   -30.930   -72.172 
  275.000000   -25.758   -34.364    22.205   149.978   -24.769   -14.457   -29.511   -68.856 
  290.000000   -24.879   -35.238    22.234   148.465   -24.647   -15.788   -29.082   -72.098 
  305.000000   -26.074   -37.027    22.182   146.917   -24.695   -16.304   -29.460   -79.246 
  320.000000   -25.800   -39.464    22.247   145.278   -24.635   -17.344   -29.722   -84.550 
  335.000000   -26.189   -40.258    22.214   143.646   -24.728   -18.290   -29.553   -88.260 
  350.000000   -24.389   -42.047    22.224   141.995   -24.685   -19.269   -28.689   -82.974 
  365.000000   -24.739   -44.134    22.133   140.553   -24.644   -19.779   -28.181   -85.144 
  380.000000   -24.015   -44.956    22.127   139.063   -24.589   -20.641   -27.227   -81.953 
  395.000000   -25.382   -47.378    22.115   137.292   -24.574   -21.473   -28.160   -93.541 
  410.000000   -24.779   -46.044    22.142   135.782   -24.626   -22.212   -27.696   -94.063 
  425.000000   -25.200   -48.300    22.142   134.147   -24.624   -23.075   -28.382  -101.037 
  440.000000   -24.096   -49.769    22.065   132.662   -24.638   -23.445   -27.196   -92.843 
  455.000000   -24.230   -52.038    22.028   131.193   -24.574   -24.749   -27.333   -97.082 
  470.000000   -23.947   -50.685    21.992   129.733   -24.550   -25.347   -26.724   -94.687 
  485.000000   -25.166   -53.803    22.039   127.992   -24.547   -26.313   -27.737  -106.473 
  500.000000   -24.611   -56.468    22.011   126.469   -24.556   -26.985   -27.418  -106.848 
  515.000000   -24.824   -55.494    22.034   124.816   -24.541   -27.673   -27.847  -115.290 
  530.000000   -24.261   -58.689    21.929   123.464   -24.596   -28.610   -27.023  -107.149 
  545.000000   -23.822   -59.472    21.922   121.935   -24.466   -29.701   -26.837  -110.075 
  560.000000   -25.130   -61.469    21.894   120.425   -24.505   -30.440   -27.565  -117.117 
  575.000000   -24.756   -63.733    21.935   118.694   -24.474   -31.370   -27.500  -121.948 
  590.000000   -25.770   -67.830    21.908   117.221   -24.506   -32.360   -27.959  -128.721 
  605.000000   -24.147   -66.039    21.878   115.649   -24.519   -32.953   -27.132  -122.068 
  620.000000   -24.457   -68.038    21.814   114.282   -24.463   -33.739   -27.077  -124.692 
  635.000000   -23.978   -70.049    21.786   112.669   -24.403   -34.834   -27.187  -122.331 
  650.000000   -25.431   -71.081    21.788   111.142   -24.394   -35.633   -27.381  -136.036 
  665.000000   -25.100   -73.500    21.801   109.629   -24.427   -36.467   -27.379  -137.153 
  680.000000   -25.472   -75.674    21.784   108.059   -24.438   -37.185   -27.595  -144.576 
  695.000000   -24.562   -75.348    21.721   106.690   -24.425   -38.036   -26.891  -135.333 
  710.000000   -24.620   -77.407    21.691   105.125   -24.353   -39.148   -26.872  -139.400 
  725.000000   -25.146   -78.376    21.629   103.633   -24.368   -39.814   -26.716  -142.347 
  740.000000   -25.249   -79.470    21.685   102.032   -24.323   -40.707   -27.079  -149.078 
  755.000000   -24.566   -81.365    21.616   100.607   -24.381   -41.769   -26.749  -147.134 
  770.000000   -24.530   -82.153    21.567    99.114   -24.333   -42.460   -26.379  -145.021 
  785.000000   -25.324   -82.972    21.643    97.482   -24.265   -43.231   -26.780  -158.934 
  800.000000   -25.434   -87.143    21.600    95.957   -24.352   -43.962   -26.874  -157.335 
  815.000000   -24.803   -86.095    21.605    94.334   -24.316   -44.974   -26.827  -161.995 
  830.000000   -24.547   -87.285    21.488    93.086   -24.358   -45.711   -26.405  -154.372 
  845.000000   -23.924   -87.908    21.496    91.505   -24.202   -46.723   -26.432  -158.029 
  860.000000   -25.153   -88.916    21.430    90.149   -24.220   -47.719   -26.355  -159.772 
  875.000000   -25.099   -90.067    21.503    88.336   -24.234   -48.341   -26.406  -165.989 
  890.000000   -25.442   -92.345    21.448    86.870   -24.258   -49.148   -26.458  -170.676 
  905.000000   -24.190   -93.858    21.444    85.436   -24.236   -50.189   -26.166  -167.351 
  920.000000   -24.367   -95.370    21.356    84.106   -24.213   -50.969   -26.190  -168.392 
  935.000000   -23.944   -96.465    21.346    82.568   -24.158   -51.957   -26.004  -166.433 
  950.000000   -25.069   -98.010    21.353    80.990   -24.157   -52.729   -26.254  -178.267 
  965.000000   -24.818   -99.371    21.334    79.491   -24.187   -53.686   -26.059  -178.172 
  980.000000   -25.075  -100.732    21.343    77.988   -24.183   -54.515   -26.155   174.370 
  995.000000   -24.264  -101.458    21.256    76.632   -24.199   -55.324   -25.853  -177.126 
 1010.000000   -24.441  -104.061    21.239    75.205   -24.133   -56.389   -25.984   177.552 
 1025.000000   -24.766  -104.610    21.178    73.770   -24.094   -57.274   -25.714   178.597 
 1040.000000   -25.133  -107.381    21.229    72.039   -24.029   -58.126   -25.973   169.832 
 1055.000000   -25.356  -106.495    21.197    70.626   -24.126   -58.763   -25.628   168.128 
 1070.000000   -24.407  -107.882    21.197    69.070   -24.088   -59.719   -25.730   165.973 
 1085.000000   -24.647  -109.386    21.091    67.741   -24.090   -60.630   -25.590   168.123 
 1100.000000   -24.092  -111.552    21.084    66.296   -24.018   -61.568   -25.490   167.325 
 1115.000000   -25.316  -114.685    21.047    64.888   -24.023   -62.610   -25.358   159.929 
 1130.000000   -25.220  -115.630    21.086    63.215   -23.964   -63.548   -25.174   157.315 
 1145.000000   -25.498  -115.559    21.062    61.652   -24.026   -64.167   -25.160   151.216 
 1160.000000   -24.340  -117.326    21.013    60.262   -24.006   -64.948   -25.227   158.330 
 1175.000000   -24.626  -119.391    20.961    58.897   -23.957   -65.795   -25.194   155.166 
 1190.000000   -24.358  -119.964    20.924    57.490   -23.936   -66.954   -25.099   156.604 
 1205.000000   -25.092  -121.350    20.954    55.903   -23.891   -67.749   -24.946   145.568 
 1220.000000   -25.117  -125.034    20.911    54.495   -23.925   -68.741   -24.828   145.852 
 1235.000000   -24.902  -126.751    20.930    52.895   -23.920   -69.511   -24.727   141.528 
 1250.000000   -24.758  -128.885    20.828    51.671   -23.936   -70.388   -24.781   146.717 
 1265.000000   -24.372  -128.376    20.824    50.173   -23.802   -71.362   -24.651   143.969 
 1280.000000   -25.007  -129.261    20.753    48.810   -23.828   -72.108   -24.652   141.443 
 1295.000000   -25.068  -131.260    20.808    47.111   -23.798   -73.296   -24.502   135.774 
 1310.000000   -25.461  -132.451    20.765    45.709   -23.835   -74.120   -24.438   133.338 
 1325.000000   -24.361  -134.268    20.769    44.258   -23.804   -74.796   -24.314   135.723 
 1340.000000   -24.617  -136.661    20.685    42.892   -23.800   -75.655   -24.248   133.912 
 1355.000000   -24.262  -138.230    20.668    41.396   -23.742   -76.668   -24.280   135.404 
 1370.000000   -25.265  -140.202    20.649    39.928   -23.725   -77.675   -24.097   126.393 
 1385.000000   -25.068  -141.528    20.644    38.402   -23.748   -78.497   -24.014   125.576 
 1400.000000   -25.136  -141.275    20.638    36.857   -23.771   -79.268   -23.720   120.095 
 1415.000000   -24.421  -142.996    20.557    35.614   -23.746   -80.187   -23.939   126.323 
 1430.000000   -24.411  -145.420    20.539    34.153   -23.644   -81.299   -23.799   123.956 
 1445.000000   -24.619  -147.454    20.477    32.853   -23.662   -81.962   -23.750   123.793 
 1460.000000   -25.303  -149.727    20.528    31.145   -23.601   -83.263   -23.509   117.122 
 1475.000000   -25.236  -150.066    20.472    29.787   -23.679   -83.823   -23.500   114.749 
 1490.000000   -24.613  -152.064    20.482    28.230   -23.642   -84.804   -23.411   113.687 
 1505.000000   -24.852  -155.506    20.443    26.844   -23.551   -85.965   -23.355   111.150 
 1520.000000   -25.268  -156.255    20.415    25.465   -23.605   -86.486   -23.127   109.479 
 1535.000000   -24.477  -157.051    20.411    23.874   -23.600   -87.552   -22.853   109.100 
 1550.000000   -24.909  -155.138    20.290    22.599   -23.611   -88.085   -23.348   107.758 
 1565.000000   -23.921  -157.916    20.294    21.249   -23.515   -89.233   -23.111   110.137 
 1580.000000   -25.090  -163.061    20.239    19.839   -23.516   -90.343   -22.944   105.264 
 1600.000000   -24.599  -163.336    20.249    17.864   -23.516   -91.309   -22.947   102.202 
 1615.000000   -24.772  -165.154    20.260    16.292   -23.504   -92.102   -22.704    98.809 
 1635.000000   -24.161  -165.599    20.140    14.665   -23.485   -93.251   -22.675   101.781 
 1650.000000   -23.825  -167.084    20.152    13.174   -23.418   -94.612   -22.552   101.059 
 1670.000000   -24.951  -170.832    20.123    11.209   -23.366   -95.789   -22.301    95.164 
 1685.000000   -24.534  -171.570    20.106     9.754   -23.405   -96.405   -22.278    94.987 
 1705.000000   -24.159  -172.708    20.098     7.767   -23.375   -97.661   -22.212    91.419 
 1720.000000   -24.082  -174.964    19.992     6.585   -23.401   -98.684   -22.334    94.281 
 1740.000000   -23.411  -176.461    19.969     4.654   -23.294  -100.120   -22.321    94.068 
 1755.000000   -24.393  -178.469    19.947     3.208   -23.304  -101.021   -22.104    88.003 
 1775.000000   -24.272   179.229    19.929     1.275   -23.302  -102.148   -22.032    87.009 
 1790.000000   -23.981   178.243    19.952    -0.231   -23.293  -103.037   -21.850    83.840 
 1810.000000   -23.704   176.390    19.842    -1.925   -23.293  -104.045   -21.987    85.193 
 1825.000000   -23.131   174.060    19.817    -3.424   -23.232  -105.331   -21.967    85.268 
 1845.000000   -23.871   171.868    19.793    -5.299   -23.176  -106.666   -21.896    78.861 
 1860.000000   -24.075   171.624    19.766    -6.743   -23.208  -107.250   -21.822    78.556 
 1880.000000   -23.459   170.048    19.756    -8.698   -23.206  -108.405   -21.758    78.354 
 1895.000000   -23.225   168.868    19.674    -9.766   -23.193  -109.303   -21.742    78.988 
 1915.000000   -22.699   167.747    19.636   -11.686   -23.109  -110.502   -21.819    79.201 
 1930.000000   -23.580   164.782    19.640   -13.160   -23.049  -111.748   -21.720    72.677 
 1950.000000   -23.430   162.922    19.605   -15.067   -23.090  -112.844   -21.699    72.029 
 1965.000000   -22.848   162.530    19.594   -16.561   -23.074  -113.747   -21.605    69.641 
 1985.000000   -22.622   159.775    19.521   -18.210   -23.027  -115.056   -21.569    70.812 
 2000.000000   -22.450   160.362    19.478   -19.644   -23.001  -115.950   -21.622    71.769 
 2020.000000   -23.002   156.576    19.476   -21.637   -22.966  -117.291   -21.445    65.554 
 2050.000000   -22.989   151.073    19.425   -24.457   -22.996  -119.246   -21.516    64.141 
 2090.000000   -22.738   151.134    19.344   -28.105   -22.972  -121.725   -21.573    59.858 
 2120.000000   -22.835   150.727    19.304   -30.977   -22.920  -123.243   -21.472    56.842 
 2160.000000   -21.211   145.738    19.215   -34.543   -22.826  -126.069   -21.531    58.174 
 2190.000000   -21.805   143.691    19.116   -37.320   -22.871  -128.179   -21.785    56.229 
 2230.000000   -21.256   142.223    19.053   -40.619   -22.744  -130.321   -21.665    52.980 
 2260.000000   -21.268   139.790    19.016   -43.653   -22.647  -132.414   -21.649    52.214 
 2300.000000   -20.393   134.575    18.928   -47.160   -22.660  -135.156   -21.766    50.098 
 2330.000000   -20.556   133.283    18.841   -49.778   -22.602  -136.738   -21.828    49.662 
 2370.000000   -20.806   126.929    18.805   -53.561   -22.525  -139.217   -21.679    41.636 
 2400.000000   -20.628   127.201    18.750   -56.427   -22.460  -141.348   -21.699    38.522 
 2440.000000   -20.227   122.814    18.689   -60.158   -22.451  -143.893   -21.971    37.441 
 2470.000000   -20.097   122.354    18.638   -62.783   -22.462  -145.571   -22.074    35.365 
 2510.000000   -20.186   118.587    18.565   -66.344   -22.394  -148.270   -22.132    30.552 
 2540.000000   -19.832   116.496    18.529   -69.224   -22.341  -150.347   -22.077    28.672 
 2580.000000   -19.534   112.982    18.416   -72.809   -22.277  -152.756   -21.934    28.156 
 2610.000000   -19.213   111.762    18.351   -75.194   -22.315  -154.277   -22.623    27.361 
 2650.000000   -19.106   108.448    18.244   -78.721   -22.217  -157.180   -22.647    24.114 
 2680.000000   -18.780   105.832    18.216   -81.514   -22.132  -159.401   -22.559    22.857 
 2720.000000   -18.650   101.823    18.112   -85.071   -22.108  -161.922   -22.695    20.395 
 2750.000000   -18.608    99.428    18.077   -88.015   -22.053  -163.840   -22.737    18.411 
 2790.000000   -18.824    97.587    17.991   -91.185   -22.019  -166.654   -22.889    13.197 
 2820.000000   -18.607    95.012    17.959   -94.211   -21.933  -168.669   -22.927    10.094 
 2860.000000   -18.341    91.419    17.885   -97.630   -21.937  -170.972   -23.201     8.000 
 2890.000000   -18.239    90.647    17.822  -100.173   -21.930  -172.931   -23.358     7.193 
 2930.000000   -18.537    87.113    17.766  -103.848   -21.838  -175.546   -23.428     2.590 
 2960.000000   -18.055    84.128    17.713  -106.407   -21.830  -177.429   -23.414     0.977 
 3000.000000   -17.676    81.185    17.630  -109.882   -21.790  -179.992   -23.468     2.765 
 3030.000000   -17.778    79.296    17.567  -112.620   -21.713   177.646   -23.554    -4.294 
 3070.000000   -17.799    75.899    17.496  -116.225   -21.620   174.955   -23.602    -5.349 
 3100.000000   -17.471    73.304    17.461  -118.698   -21.615   173.065   -23.809    -7.829 
 3140.000000   -17.815    71.898    17.350  -122.308   -21.602   170.468   -23.684   -11.596 
 3170.000000   -17.616    68.316    17.291  -125.073   -21.587   168.022   -24.054   -15.597 
 3210.000000   -17.227    67.115    17.235  -128.279   -21.477   166.022   -24.271   -13.774 
 3240.000000   -17.107    63.020    17.193  -130.984   -21.485   164.021   -24.369   -14.847 
 3280.000000   -17.264    61.781    17.085  -134.420   -21.426   161.273   -24.345   -17.683 
 3310.000000   -17.306    57.188    17.040  -137.109   -21.356   159.028   -24.473   -20.437 
 3350.000000   -16.811    55.870    16.997  -140.536   -21.288   155.967   -24.571   -22.386 
 3380.000000   -17.092    53.706    16.884  -143.103   -21.308   154.350   -24.872   -21.995 
 3420.000000   -17.001    50.396    16.832  -146.490   -21.228   151.546   -24.933   -28.869 
 3450.000000   -17.350    49.093    16.788  -149.210   -21.207   149.226   -25.389   -33.932 
 3490.000000   -16.908    46.699    16.746  -152.659   -21.180   146.994   -25.416   -31.480 
 3520.000000   -17.048    44.615    16.693  -155.078   -21.171   144.988   -25.387   -32.779 
 3560.000000   -16.863    39.417    16.614  -158.852   -21.033   142.393   -25.343   -39.354 
 3590.000000   -16.862    38.440    16.603  -161.448   -21.006   140.393   -25.289   -42.686 
 3630.000000   -16.722    32.740    16.508  -164.896   -21.008   137.675   -25.535   -41.977 
 3660.000000   -16.556    32.343    16.448  -167.412   -20.964   135.643   -25.694   -43.225 
 3700.000000   -17.265    29.465    16.301  -170.602   -21.013   132.566   -26.505   -51.221 
 3730.000000   -16.376    27.862    16.332  -173.359   -20.896   130.920   -26.141   -45.825 
 3770.000000   -16.817    22.304    16.251  -176.761   -20.809   127.896   -26.401   -53.214 
 3800.000000   -16.685    21.060    16.191  -179.198   -20.763   126.174   -26.361   -52.025 
 3840.000000   -17.074    19.417    16.169   177.231   -20.702   123.516   -26.494   -56.126 
 3870.000000   -16.743    13.035    16.133   174.591   -20.662   121.359   -26.450   -63.017 
 3910.000000   -17.036    11.549    16.024   170.914   -20.608   118.053   -26.692   -69.557 
 3940.000000   -16.766     7.997    15.956   168.831   -20.631   116.358   -27.463   -66.086 
 3980.000000   -16.961     6.741    15.877   165.085   -20.546   113.235   -27.334   -72.442 
 4010.000000   -16.970     3.576    15.845   162.896   -20.591   111.645   -28.348   -75.478 
 4050.000000   -16.494     1.011    15.816   159.407   -20.454   108.917   -27.596   -71.981 
 4080.000000   -16.840    -3.322    15.761   156.726   -20.399   106.488   -27.419   -76.485 
 4120.000000   -16.898    -6.743    15.664   153.130   -20.364   103.720   -27.759   -86.445 
 4150.000000   -17.343    -9.137    15.597   150.673   -20.333   101.509   -28.323   -94.160 
 4190.000000   -17.110   -11.406    15.550   147.479   -20.317    98.601   -29.016  -101.325 
 4220.000000   -17.232   -14.074    15.515   144.822   -20.288    97.053   -29.244   -97.674 
 4260.000000   -17.263   -19.408    15.452   141.344   -20.247    94.105   -29.090  -110.702 
 4290.000000   -17.339   -18.604    15.406   139.016   -20.247    92.004   -29.914  -112.391 
 4330.000000   -16.990   -26.421    15.405   135.420   -20.180    89.105   -29.396  -114.420 
 4360.000000   -17.069   -27.962    15.300   132.945   -20.109    86.958   -29.442  -119.203 
 4400.000000   -17.318   -32.265    15.259   129.743   -20.094    84.636   -30.454  -121.471 
 4430.000000   -17.010   -33.555    15.200   127.230   -20.021    82.354   -30.182  -129.589 
 4470.000000   -17.392   -40.730    15.137   123.512   -19.946    79.348   -29.608  -135.625 
 4500.000000   -17.532   -43.414    15.046   120.999   -19.922    76.851   -29.726  -144.499 
 4540.000000   -17.954   -47.238    15.013   117.610   -19.898    74.496   -29.436  -153.354 
 4570.000000   -17.910   -48.399    14.946   115.223   -19.940    71.996   -29.022  -166.930 
 4610.000000   -17.704   -51.940    14.933   111.876   -19.877    69.536   -30.035  -168.193 
 4640.000000   -17.353   -55.544    14.886   109.422   -19.845    67.728   -30.284  -164.082 
 4680.000000   -17.789   -59.969    14.789   105.953   -19.775    64.838   -28.918  -175.361 
 4710.000000   -17.526   -66.055    14.776   103.212   -19.732    62.430   -28.520  -179.013 
 4750.000000   -17.987   -68.622    14.699   100.099   -19.679    59.224   -28.145   170.470 
 4780.000000   -17.914   -73.631    14.646    97.325   -19.617    57.405   -27.717   172.974 
 4820.000000   -18.346   -78.299    14.594    93.708   -19.557    54.263   -25.955   164.198 
 4850.000000   -19.080   -77.020    14.501    92.067   -19.696    52.037   -26.490   148.594 
