! Mini-Circuits  
! S2P DATA File Format
! Type: MMIC Amplifier
! Model: LEE-39+
! TEST CONDITIONS: INPUT POWER = -25dBm, Icc = 28mA, Vd = 3.76V @Temperature = -45degC
! 401 Frequency points
!
! S Parameters are in dB deg format
!
# MHz S DB R 50
!    FREQ       dB(S11)   PHS(S11)  dB(S21)   PHS(S21)  dB(S12)   PHS(S12)  dB(S22)   PHS(S22) 
   50.000000   -39.585  -101.995    23.246   173.702   -25.305    -1.138   -32.999   177.052 
   65.000000   -52.353   -50.304    23.236   172.199   -25.552    -3.491   -34.668   174.489 
   80.000000   -35.547   -18.738    23.301   170.372   -25.338    -4.581   -34.327  -166.179 
   95.000000   -36.175   -13.036    23.188   168.770   -25.491    -6.232   -35.032  -159.444 
  110.000000   -35.108   -23.334    23.179   167.091   -25.487    -5.935   -34.359  -164.590 
  125.000000   -37.926   -22.451    23.151   165.507   -25.390    -7.824   -33.904  -158.639 
  140.000000   -36.634   -11.018    23.217   163.723   -25.390    -8.335   -35.527  -156.725 
  155.000000   -36.706   -19.409    23.195   161.966   -25.487    -8.747   -35.850  -153.473 
  170.000000   -32.294   -20.177    23.183   160.335   -25.410   -10.240   -35.541  -142.072 
  185.000000   -33.737   -19.462    23.127   158.690   -25.392   -10.568   -34.204  -153.700 
  200.000000   -33.735   -23.965    23.108   157.059   -25.383   -11.297   -33.257  -157.879 
  215.000000   -36.109   -24.502    23.122   155.380   -25.307   -12.515   -32.276  -163.254 
  230.000000   -36.436   -21.612    23.146   153.600   -25.378   -13.465   -33.812  -155.415 
  245.000000   -36.750   -34.580    23.135   151.803   -25.403   -14.442   -32.833  -158.625 
  260.000000   -37.896   -42.450    23.082   150.309   -25.332   -15.433   -33.251  -154.513 
  275.000000   -36.815   -41.346    23.052   148.510   -25.356   -16.199   -30.538  -172.982 
  290.000000   -40.525   -49.659    23.012   147.009   -25.343   -17.262   -30.152  -174.041 
  305.000000   -43.387   -63.639    23.079   145.223   -25.315   -17.932   -28.417   177.098 
  320.000000   -45.655  -107.847    23.041   143.596   -25.301   -19.114   -29.747  -178.809 
  335.000000   -43.327   -87.631    23.061   141.879   -25.318   -19.446   -28.772   178.056 
  350.000000   -40.573   -93.694    22.985   140.170   -25.387   -20.569   -28.917   177.026 
  365.000000   -39.893  -100.192    22.974   138.595   -25.289   -21.386   -26.776   169.576 
  380.000000   -40.744  -154.477    22.915   137.058   -25.218   -22.441   -26.936   169.385 
  395.000000   -39.609  -156.913    22.985   135.160   -25.170   -23.432   -26.187   167.382 
  410.000000   -39.071  -177.424    22.942   133.645   -25.270   -24.057   -26.881   170.835 
  425.000000   -40.522  -135.601    22.964   131.833   -25.255   -25.437   -26.300   167.362 
  440.000000   -39.990  -153.006    22.859   130.376   -25.234   -25.675   -26.098   166.639 
  455.000000   -39.022  -136.582    22.857   128.725   -25.216   -26.812   -25.322   163.409 
  470.000000   -39.370   176.768    22.824   127.199   -25.180   -27.997   -25.283   162.241 
  485.000000   -38.605   173.947    22.863   125.400   -25.153   -28.677   -25.320   162.455 
  500.000000   -37.562   178.032    22.832   123.767   -25.161   -29.824   -25.579   163.858 
  515.000000   -42.054  -157.851    22.823   122.069   -25.175   -30.329   -25.465   163.320 
  530.000000   -40.146  -167.413    22.756   120.590   -25.144   -31.140   -24.876   159.459 
  545.000000   -40.265   178.535    22.712   119.036   -25.116   -32.417   -24.757   158.747 
  560.000000   -39.571   179.035    22.776   117.319   -25.087   -33.295   -24.287   154.506 
  575.000000   -38.556   168.753    22.744   115.679   -25.092   -34.288   -25.220   158.747 
  590.000000   -38.713  -172.970    22.752   113.956   -25.100   -35.122   -24.854   154.556 
  605.000000   -40.913  -162.898    22.641   112.421   -25.087   -36.027   -25.212   156.355 
  620.000000   -40.487  -143.822    22.649   110.898   -25.038   -37.062   -24.160   150.248 
  635.000000   -38.616   169.075    22.585   109.299   -25.045   -38.354   -24.378   148.150 
  650.000000   -39.294   167.595    22.660   107.547   -24.975   -38.964   -23.929   147.436 
  665.000000   -37.298   156.072    22.616   105.947   -25.098   -39.859   -24.530   148.331 
  680.000000   -39.597  -171.691    22.599   104.259   -25.008   -40.600   -24.335   146.632 
  695.000000   -39.944   167.995    22.524   102.936   -25.063   -41.476   -24.104   144.550 
  710.000000   -38.703   156.358    22.501   101.238   -25.014   -42.752   -23.594   141.923 
  725.000000   -39.077   151.421    22.522    99.639   -24.914   -43.696   -23.130   139.688 
  740.000000   -37.789   140.063    22.492    98.011   -24.983   -44.331   -23.875   142.016 
  755.000000   -40.715   177.054    22.452    96.485   -24.937   -45.464   -23.159   138.124 
  770.000000   -37.055   133.191    22.410    94.855   -24.924   -46.649   -23.014   136.924 
  785.000000   -38.571   134.549    22.458    93.164   -24.900   -47.367   -23.066   135.632 
  800.000000   -35.772   133.430    22.421    91.627   -24.964   -48.293   -23.361   134.983 
  815.000000   -40.639   153.370    22.394    89.911   -24.928   -49.047   -23.528   135.368 
  830.000000   -39.803   143.972    22.339    88.433   -24.926   -50.210   -22.855   131.123 
  845.000000   -40.983   148.465    22.298    86.896   -24.872   -51.174   -22.789   129.640 
  860.000000   -38.148   126.239    22.318    85.281   -24.816   -52.148   -22.486   127.199 
  875.000000   -37.566   117.905    22.298    83.681   -24.855   -53.176   -23.204   129.386 
  890.000000   -39.458   137.713    22.303    81.938   -24.839   -54.090   -22.924   126.640 
  905.000000   -39.357   143.862    22.213    80.517   -24.865   -54.982   -23.169   126.960 
  920.000000   -40.387   163.225    22.203    78.981   -24.766   -55.989   -22.451   120.676 
  935.000000   -37.601   124.762    22.141    77.443   -24.741   -56.980   -22.555   120.182 
  950.000000   -38.623   131.841    22.196    75.692   -24.737   -57.792   -22.417   117.906 
  965.000000   -36.973   120.451    22.148    74.171   -24.800   -58.780   -22.805   119.032 
  980.000000   -39.841   152.799    22.157    72.599   -24.743   -59.664   -22.787   116.941 
  995.000000   -39.423   143.358    22.077    71.158   -24.762   -60.540   -22.528   114.945 
 1010.000000   -38.931   150.213    22.068    69.622   -24.700   -61.589   -22.236   111.325 
 1025.000000   -37.351   119.508    22.023    68.008   -24.661   -62.639   -21.988   109.650 
 1040.000000   -37.099   121.239    22.041    66.289   -24.640   -63.497   -22.535   110.318 
 1055.000000   -38.634   113.807    22.032    64.750   -24.660   -64.243   -22.275   109.672 
 1070.000000   -40.203   130.907    21.966    63.246   -24.675   -65.326   -22.518   109.168 
 1085.000000   -40.101   127.797    21.927    61.740   -24.601   -66.629   -21.645   103.931 
 1100.000000   -37.934   110.528    21.889    60.266   -24.576   -67.496   -21.738   103.658 
 1115.000000   -36.620   110.494    21.926    58.645   -24.544   -68.568   -21.294   101.033 
 1130.000000   -35.368    96.198    21.902    57.039   -24.615   -69.241   -21.779   103.525 
 1145.000000   -39.584   114.784    21.903    55.281   -24.587   -70.410   -21.566   100.856 
 1160.000000   -38.571   107.685    21.804    53.929   -24.587   -71.125   -21.699   100.499 
 1175.000000   -39.684   117.432    21.797    52.397   -24.499   -72.308   -21.220    96.960 
 1190.000000   -36.176    86.972    21.747    50.966   -24.542   -73.044   -21.116    95.795 
 1205.000000   -37.748    93.868    21.783    49.204   -24.451   -74.183   -21.125    94.974 
 1220.000000   -35.134    88.565    21.735    47.700   -24.491   -75.084   -21.271    95.294 
 1235.000000   -37.678   108.525    21.730    46.101   -24.471   -76.095   -21.370    94.652 
 1250.000000   -36.683    99.866    21.679    44.734   -24.440   -77.026   -20.951    91.206 
 1265.000000   -37.985    99.061    21.644    43.189   -24.402   -78.067   -20.948    90.074 
 1280.000000   -37.420    85.833    21.627    41.610   -24.352   -79.220   -20.717    87.026 
 1295.000000   -36.479    85.292    21.633    40.079   -24.378   -79.975   -21.200    88.784 
 1310.000000   -38.311    95.538    21.614    38.420   -24.373   -80.804   -21.116    86.609 
 1325.000000   -38.005    99.731    21.543    37.144   -24.391   -81.702   -21.309    87.207 
 1340.000000   -37.941   111.686    21.533    35.480   -24.314   -82.937   -20.726    82.093 
 1355.000000   -36.180    90.349    21.477    34.037   -24.293   -83.832   -20.850    81.775 
 1370.000000   -37.036    95.197    21.510    32.347   -24.266   -85.066   -20.741    78.881 
 1385.000000   -35.546    83.484    21.461    30.890   -24.299   -85.756   -21.091    79.891 
 1400.000000   -38.925   116.137    21.461    29.174   -24.255   -86.669   -20.962    77.821 
 1415.000000   -38.060   103.743    21.370    27.846   -24.288   -87.660   -20.964    76.175 
 1430.000000   -37.683   117.333    21.371    26.291   -24.223   -88.872   -20.737    74.187 
 1445.000000   -36.289    89.893    21.337    24.827   -24.176   -89.832   -20.584    72.156 
 1460.000000   -36.006    90.375    21.336    23.214   -24.185   -90.852   -20.870    72.440 
 1475.000000   -36.925    91.178    21.323    21.661   -24.187   -91.703   -20.801    70.260 
 1490.000000   -36.661   105.833    21.278    20.219   -24.201   -92.650   -20.979    70.532 
 1505.000000   -35.337    95.243    21.267    18.616   -24.136   -93.955   -20.847    68.159 
 1520.000000   -36.190    99.024    21.259    17.093   -24.156   -94.560   -20.623    66.682 
 1535.000000   -36.126   103.216    21.201    15.628   -24.150   -95.750   -20.620    67.209 
 1550.000000   -38.227    94.157    21.152    13.977   -24.117   -96.816   -20.168    60.261 
 1565.000000   -37.505    98.616    21.108    12.753   -24.055   -97.537   -20.494    61.829 
 1580.000000   -35.630    96.068    21.126    11.032   -24.029   -98.726   -20.258    59.388 
 1600.000000   -36.334    92.649    21.084     9.107   -24.065   -99.848   -20.698    59.687 
 1615.000000   -36.253   116.987    21.076     7.524   -24.012  -101.001   -20.722    59.048 
 1635.000000   -36.692   117.843    21.006     5.670   -23.962  -102.555   -20.377    55.806 
 1650.000000   -37.099   109.717    20.979     4.186   -23.934  -103.337   -20.434    55.730 
 1670.000000   -36.771   101.583    20.994     1.975   -23.891  -104.780   -20.302    53.538 
 1685.000000   -37.315    94.096    20.945     0.546   -23.913  -105.500   -20.617    54.485 
 1705.000000   -36.382   124.417    20.912    -1.478   -23.884  -106.896   -20.742    52.924 
 1720.000000   -36.247   118.479    20.848    -2.920   -23.901  -108.009   -20.491    49.674 
 1740.000000   -36.762   113.306    20.794    -4.777   -23.844  -109.583   -20.576    48.702 
 1755.000000   -36.623   117.099    20.822    -6.476   -23.786  -110.590   -20.402    46.347 
 1775.000000   -36.780   106.973    20.775    -8.463   -23.821  -111.687   -20.692    47.024 
 1790.000000   -34.746   125.627    20.776    -9.953   -23.772  -112.754   -20.706    46.099 
 1810.000000   -34.716   126.327    20.693   -11.896   -23.747  -114.025   -20.406    41.276 
 1825.000000   -35.171   114.011    20.648   -13.373   -23.725  -115.280   -20.481    40.798 
 1845.000000   -35.087   117.102    20.652   -15.436   -23.655  -116.500   -20.585    38.834 
 1860.000000   -37.047   107.452    20.616   -16.934   -23.728  -117.400   -20.678    38.439 
 1880.000000   -34.960   119.780    20.567   -18.861   -23.680  -118.710   -20.832    38.968 
 1895.000000   -33.842   125.360    20.548   -20.243   -23.651  -119.730   -20.440    34.868 
 1915.000000   -34.922   116.836    20.476   -22.075   -23.606  -121.036   -20.522    33.804 
 1930.000000   -34.273   116.298    20.503   -23.831   -23.541  -122.210   -20.518    31.594 
 1950.000000   -34.080   114.840    20.455   -25.822   -23.569  -123.328   -20.729    31.498 
 1965.000000   -32.978   121.457    20.427   -27.259   -23.538  -124.640   -20.763    30.742 
 1985.000000   -31.573   120.515    20.390   -29.109   -23.518  -126.267   -20.341    26.794 
 2000.000000   -34.182   113.356    20.334   -30.630   -23.525  -126.938   -20.445    26.480 
 2020.000000   -33.213   111.858    20.339   -32.627   -23.452  -128.720   -20.451    25.264 
 2050.000000   -33.387    93.599    20.283   -35.642   -23.490  -130.404   -20.654    23.370 
 2090.000000   -31.544   112.149    20.229   -39.712   -23.434  -133.322   -20.579    19.293 
 2120.000000   -32.807   116.144    20.159   -42.583   -23.343  -134.956   -20.607    17.516 
 2160.000000   -29.760   110.873    20.049   -46.286   -23.300  -137.721   -20.790    16.098 
 2190.000000   -31.626   109.155    19.978   -49.350   -23.346  -140.082   -20.715    11.316 
 2230.000000   -29.482   114.809    19.933   -53.153   -23.204  -142.966   -20.541     7.495 
 2260.000000   -29.590   113.132    19.869   -55.991   -23.148  -144.942   -20.643     7.925 
 2300.000000   -29.284   105.550    19.789   -59.924   -23.074  -147.468   -20.783     4.206 
 2330.000000   -29.780   106.443    19.739   -62.674   -22.992  -149.970   -20.895     2.762 
 2370.000000   -28.947    97.156    19.695   -66.803   -22.990  -152.544   -20.693    -1.580 
 2400.000000   -28.754   104.800    19.654   -69.674   -22.882  -154.728   -20.920    -2.479 
 2440.000000   -28.435    99.366    19.569   -73.605   -22.913  -157.384   -21.467    -3.416 
 2470.000000   -28.128   101.715    19.507   -76.458   -22.921  -159.514   -21.482    -6.614 
 2510.000000   -26.768    98.586    19.480   -80.189   -22.809  -162.251   -21.457   -10.072 
 2540.000000   -26.469    98.138    19.416   -83.152   -22.758  -164.392   -21.565   -10.642 
 2580.000000   -26.965    94.529    19.285   -86.957   -22.718  -167.072   -21.467   -12.795 
 2610.000000   -26.106    94.570    19.219   -89.680   -22.767  -169.181   -22.064   -18.354 
 2650.000000   -25.519    91.846    19.146   -93.388   -22.566  -172.443   -21.939   -21.772 
 2680.000000   -25.071    88.480    19.117   -96.328   -22.567  -174.348   -21.988   -21.739 
 2720.000000   -26.031    83.305    18.998  -100.114   -22.498  -177.172   -22.098   -26.292 
 2750.000000   -25.601    80.921    18.978  -103.248   -22.422  -179.468   -22.067   -28.864 
 2790.000000   -25.313    80.117    18.927  -106.705   -22.387   177.592   -22.256   -31.835 
 2820.000000   -24.874    76.785    18.886  -109.829   -22.324   175.303   -22.348   -32.735 
 2860.000000   -24.876    72.706    18.781  -113.522   -22.325   172.816   -22.771   -35.188 
 2890.000000   -24.437    73.500    18.753  -116.248   -22.254   170.778   -22.916   -36.515 
 2930.000000   -24.127    68.185    18.700  -120.182   -22.218   167.697   -23.099   -40.387 
 2960.000000   -23.327    64.550    18.612  -122.907   -22.169   165.619   -23.205   -42.130 
 3000.000000   -23.045    61.865    18.546  -126.544   -22.140   162.669   -23.420   -44.027 
 3030.000000   -23.074    59.340    18.507  -129.562   -22.075   160.024   -23.163   -50.036 
 3070.000000   -23.139    55.922    18.427  -133.353   -21.972   157.450   -23.656   -49.704 
 3100.000000   -22.702    53.571    18.383  -136.073   -21.974   155.359   -23.939   -53.707 
 3140.000000   -22.538    52.362    18.308  -139.789   -21.929   152.360   -23.926   -56.875 
 3170.000000   -21.987    46.268    18.235  -142.833   -21.899   150.305   -24.201   -60.742 
 3210.000000   -21.576    47.548    18.159  -146.158   -21.853   147.864   -24.937   -61.571 
 3240.000000   -21.773    42.269    18.127  -149.059   -21.791   145.172   -24.916   -67.656 
 3280.000000   -21.458    39.642    18.058  -152.947   -21.720   142.159   -24.727   -72.965 
 3310.000000   -21.523    34.669    18.003  -155.502   -21.673   139.843   -24.948   -76.663 
 3350.000000   -21.043    32.467    17.950  -159.264   -21.604   136.692   -24.857   -79.768 
 3380.000000   -21.905    30.779    17.844  -161.991   -21.592   134.747   -25.209   -83.908 
 3420.000000   -21.037    25.262    17.819  -165.829   -21.559   131.961   -24.819   -89.144 
 3450.000000   -21.533    25.189    17.754  -168.602   -21.521   129.374   -25.177   -92.996 
 3490.000000   -21.089    21.909    17.688  -172.150   -21.507   126.900   -25.810   -89.396 
 3520.000000   -21.229    20.453    17.646  -174.892   -21.453   124.734   -25.729   -90.184 
 3560.000000   -20.438    13.166    17.586  -178.854   -21.370   121.894   -25.530   -94.375 
 3590.000000   -20.207    13.141    17.556   178.329   -21.315   119.372   -25.573   -96.838 
 3630.000000   -20.575     6.351    17.434   174.856   -21.268   116.608   -25.931   -98.381 
 3660.000000   -20.079     6.424    17.383   171.874   -21.249   114.404   -26.156  -104.264 
 3700.000000   -21.150     3.161    17.283   168.426   -21.209   110.756   -25.820  -115.218 
 3730.000000   -19.477     2.345    17.292   165.698   -21.120   109.054   -26.907  -110.684 
 3770.000000   -20.496    -3.618    17.198   162.073   -21.100   105.764   -26.631  -117.323 
 3800.000000   -19.980    -4.607    17.190   159.310   -21.043   104.176   -27.184  -118.718 
 3840.000000   -20.217    -5.957    17.149   155.614   -20.972   101.119   -27.176  -117.054 
 3870.000000   -19.581   -15.578    17.109   152.772   -20.897    98.451   -27.026  -121.980 
 3910.000000   -20.033   -15.080    16.993   148.809   -20.870    95.332   -26.680  -127.072 
 3940.000000   -20.285   -19.468    16.906   146.695   -20.881    93.372   -27.598  -133.792 
 3980.000000   -19.978   -20.707    16.854   142.573   -20.815    89.998   -27.071  -138.362 
 4010.000000   -20.121   -20.337    16.793   140.303   -20.844    87.855   -28.046  -151.944 
 4050.000000   -19.445   -25.119    16.797   136.528   -20.741    85.143   -27.996  -141.349 
 4080.000000   -20.169   -29.494    16.747   133.662   -20.672    82.813   -27.448  -144.434 
 4120.000000   -19.686   -34.420    16.666   129.727   -20.614    79.385   -27.423  -153.156 
 4150.000000   -20.392   -36.870    16.598   127.118   -20.574    76.858   -27.109  -156.490 
 4190.000000   -20.355   -40.466    16.517   123.484   -20.565    73.844   -27.308  -165.409 
 4220.000000   -20.413   -39.113    16.498   121.105   -20.560    72.523   -28.679  -166.574 
 4260.000000   -20.033   -48.080    16.451   117.275   -20.479    69.122   -27.370  -171.123 
 4290.000000   -20.093   -45.322    16.376   114.655   -20.492    66.495   -27.756  -178.324 
 4330.000000   -19.792   -55.885    16.378   110.898   -20.378    63.805   -27.663  -174.143 
 4360.000000   -19.753   -54.413    16.262   108.374   -20.348    61.456   -27.701   179.280 
 4400.000000   -20.311   -57.627    16.221   104.847   -20.381    58.314   -28.181   171.065 
 4430.000000   -19.477   -60.307    16.202   101.994   -20.243    56.173   -27.643   170.893 
 4470.000000   -20.316   -65.257    16.125    98.295   -20.170    52.964   -27.414   170.343 
 4500.000000   -20.793   -67.886    16.037    95.591   -20.164    50.441   -26.885   160.196 
 4540.000000   -20.778   -72.171    16.027    91.876   -20.124    47.758   -27.530   162.897 
 4570.000000   -20.462   -74.019    15.960    89.236   -20.104    44.899   -27.093   152.286 
 4610.000000   -20.269   -74.474    15.924    85.824   -20.085    42.571   -28.838   151.589 
 4640.000000   -20.348   -79.619    15.878    83.186   -20.062    40.311   -28.393   148.609 
 4680.000000   -20.465   -82.102    15.808    79.464   -19.979    37.240   -27.283   140.316 
 4710.000000   -20.171   -91.029    15.801    76.538   -19.925    34.559   -27.090   137.092 
 4750.000000   -20.823   -90.810    15.711    73.269   -19.891    31.232   -26.927   129.031 
 4780.000000   -21.226   -97.165    15.642    70.358   -19.830    29.022   -26.331   130.412 
 4820.000000   -20.879  -101.137    15.643    66.569   -19.737    26.011   -25.689   129.175 
 4850.000000   -22.264   -96.436    15.490    64.550   -19.880    23.147   -25.457   113.648 
