! Mini-Circuits  
! S2P DATA File Format
! Type: MMIC Amplifier
! Model: LEE-39+
! TEST CONDITIONS: INPUT POWER = -25dBm, Icc = 35mA, Vd = 3.45V @Temperature = +85degC
! 401 Frequency points
!
! S Parameters are in dB deg format
!
# MHz S DB R 50
!    FREQ       dB(S11)   PHS(S11)  dB(S21)   PHS(S21)  dB(S12)   PHS(S12)  dB(S22)   PHS(S22) 
   50.000000   -37.235  -158.710    23.166   173.897   -25.409    -1.574   -30.940  -179.503 
   65.000000   -41.620   168.053    23.191   172.395   -25.556    -3.211   -29.151   175.294 
   80.000000   -40.491   170.808    23.169   170.647   -25.437    -5.383   -27.994   179.421 
   95.000000   -46.024   155.672    23.141   169.070   -25.345    -4.841   -29.207  -179.237 
  110.000000   -38.357   174.066    23.111   167.439   -25.457    -5.540   -28.280   178.867 
  125.000000   -38.961   174.307    23.131   165.839   -25.312    -6.742   -28.329  -178.718 
  140.000000   -34.351   160.938    23.126   164.156   -25.471    -7.948   -26.806   175.794 
  155.000000   -34.871   164.869    23.099   162.463   -25.410    -8.149   -26.448   175.822 
  170.000000   -33.964   166.602    23.072   160.905   -25.369    -9.478   -25.970   176.990 
  185.000000   -35.613   165.431    23.039   159.315   -25.342    -9.882   -26.788   176.844 
  200.000000   -34.207   171.528    23.063   157.645   -25.366   -10.167   -26.014   178.060 
  215.000000   -35.534   170.046    23.055   156.026   -25.305   -11.362   -25.899   177.440 
  230.000000   -33.749   164.788    23.075   154.378   -25.326   -11.515   -25.267   175.318 
  245.000000   -33.758   170.399    22.999   152.682   -25.318   -13.099   -25.269   175.211 
  260.000000   -32.954   168.604    22.986   151.088   -25.322   -13.322   -25.729   177.103 
  275.000000   -35.784   170.032    22.905   149.488   -25.328   -14.256   -25.982   177.390 
  290.000000   -37.131   169.793    22.981   147.936   -25.240   -15.022   -26.094   179.729 
  305.000000   -36.582   164.975    22.946   146.271   -25.249   -15.822   -25.235   176.058 
  320.000000   -36.211   164.821    22.958   144.687   -25.293   -16.899   -25.410   176.034 
  335.000000   -35.570   161.561    22.877   143.106   -25.289   -17.465   -25.112   175.595 
  350.000000   -40.307  -179.742    22.890   141.402   -25.317   -18.808   -25.888   177.474 
  365.000000   -39.573   176.506    22.829   139.902   -25.297   -19.177   -25.735   177.581 
  380.000000   -42.931  -168.857    22.872   138.338   -25.276   -19.916   -26.240   179.502 
  395.000000   -38.419   166.810    22.847   136.675   -25.173   -20.822   -25.270   175.397 
  410.000000   -41.598   161.654    22.832   135.092   -25.223   -21.823   -25.430   176.709 
  425.000000   -39.325   155.680    22.769   133.497   -25.254   -22.534   -24.930   172.063 
  440.000000   -45.724  -172.401    22.745   131.844   -25.270   -22.976   -25.713   175.521 
  455.000000   -43.504  -178.968    22.730   130.341   -25.180   -24.039   -25.469   173.756 
  470.000000   -52.211  -162.907    22.740   128.864   -25.176   -24.741   -25.734   173.982 
  485.000000   -40.354   146.513    22.715   127.191   -25.179   -25.660   -24.888   169.075 
  500.000000   -42.921   167.365    22.673   125.628   -25.205   -26.313   -24.972   169.361 
  515.000000   -40.801   142.791    22.642   124.057   -25.147   -27.382   -24.588   166.610 
  530.000000   -45.320   170.823    22.618   122.582   -25.192   -28.155   -25.028   167.750 
  545.000000   -46.248   163.102    22.636   120.938   -25.125   -28.920   -25.000   167.811 
  560.000000   -42.861   153.546    22.605   119.447   -25.116   -29.754   -24.419   161.792 
  575.000000   -42.216   152.201    22.592   117.801   -25.069   -30.354   -24.247   161.318 
  590.000000   -38.547   148.579    22.529   116.228   -25.111   -31.303   -23.883   157.423 
  605.000000   -45.719   166.022    22.504   114.667   -25.125   -32.240   -24.537   160.426 
  620.000000   -44.777   160.879    22.477   113.239   -25.055   -32.828   -24.194   158.438 
  635.000000   -45.320  -176.174    22.500   111.534   -25.044   -33.889   -24.553   156.855 
  650.000000   -39.939   133.624    22.468   110.037   -25.007   -34.695   -23.614   153.181 
  665.000000   -41.258   146.641    22.454   108.567   -25.033   -35.178   -23.644   151.958 
  680.000000   -39.190   137.282    22.374   107.089   -25.017   -36.227   -23.388   149.765 
  695.000000   -44.282   151.297    22.365   105.571   -25.021   -36.988   -23.854   151.685 
  710.000000   -41.332   138.121    22.371   103.982   -25.000   -38.038   -23.708   150.204 
  725.000000   -44.051   139.365    22.340   102.444   -24.952   -38.930   -23.399   148.196 
  740.000000   -41.550   126.665    22.336   100.918   -24.980   -39.578   -23.276   145.752 
  755.000000   -44.528   140.474    22.262    99.475   -24.969   -40.654   -23.362   145.877 
  770.000000   -46.884   147.167    22.266    97.806   -24.931   -41.503   -23.458   145.627 
  785.000000   -41.809   113.130    22.262    96.257   -24.925   -42.311   -22.831   141.436 
  800.000000   -41.629   134.195    22.202    94.954   -24.907   -43.013   -23.014   139.849 
  815.000000   -43.727   119.073    22.170    93.263   -24.920   -43.847   -23.002   139.258 
  830.000000   -50.022   147.498    22.123    91.821   -24.853   -44.607   -23.243   139.720 
  845.000000   -54.161   167.553    22.150    90.186   -24.856   -45.738   -23.126   138.534 
  860.000000   -49.474   114.585    22.110    88.848   -24.817   -46.370   -23.003   136.378 
  875.000000   -45.749    96.869    22.106    87.139   -24.880   -47.377   -22.885   134.863 
  890.000000   -46.696   107.156    22.019    85.705   -24.821   -48.299   -22.613   131.851 
  905.000000   -53.389   146.555    22.017    84.163   -24.839   -48.841   -22.960   133.467 
  920.000000   -53.904   158.072    21.962    82.741   -24.778   -49.755   -22.833   131.292 
  935.000000   -55.570  -151.287    21.992    81.151   -24.756   -50.773   -23.017   131.399 
  950.000000   -47.720   102.037    21.957    79.639   -24.739   -51.549   -22.427   126.719 
  965.000000   -53.183   109.868    21.921    78.168   -24.779   -52.362   -22.491   126.432 
  980.000000   -46.350    91.586    21.879    76.740   -24.730   -53.244   -22.292   123.553 
  995.000000   -55.904  -127.003    21.836    75.244   -24.739   -54.138   -22.587   124.894 
 1010.000000   -54.187   138.428    21.850    73.814   -24.689   -54.789   -22.377   122.217 
 1025.000000   -58.611   163.043    21.822    72.171   -24.685   -55.930   -22.347   121.850 
 1040.000000   -46.801    99.850    21.795    70.674   -24.655   -56.870   -22.177   118.602 
 1055.000000   -51.233    67.984    21.743    69.267   -24.669   -57.239   -21.962   117.943 
 1070.000000   -57.262    60.668    21.712    67.806   -24.637   -58.408   -22.093   116.770 
 1085.000000   -68.333    43.701    21.661    66.348   -24.609   -59.363   -22.085   115.781 
 1100.000000   -62.870  -157.524    21.696    64.743   -24.581   -60.241   -22.133   115.564 
 1115.000000   -49.671   105.068    21.650    63.408   -24.562   -61.096   -21.653   111.897 
 1130.000000   -48.585    89.523    21.657    61.815   -24.577   -61.743   -21.602   111.345 
 1145.000000   -48.216    66.196    21.576    60.380   -24.564   -62.738   -21.364   108.206 
 1160.000000   -54.368  -143.249    21.562    58.862   -24.570   -63.366   -21.830   109.611 
 1175.000000   -58.626   135.360    21.524    57.457   -24.482   -64.281   -21.692   107.567 
 1190.000000   -52.170  -120.902    21.515    55.872   -24.501   -65.511   -21.765   107.068 
 1205.000000   -56.184    66.544    21.495    54.416   -24.439   -66.240   -21.290   103.475 
 1220.000000   -52.894   122.224    21.448    53.014   -24.497   -66.855   -21.291   103.023 
 1235.000000   -49.737   105.748    21.417    51.579   -24.457   -67.938   -21.213   101.315 
 1250.000000   -49.522   156.252    21.383    50.172   -24.449   -68.708   -21.404   101.596 
 1265.000000   -54.290   167.638    21.385    48.599   -24.386   -69.567   -21.335   100.231 
 1280.000000   -56.637  -159.383    21.337    47.170   -24.393   -70.593   -21.171    97.967 
 1295.000000   -55.788   115.675    21.353    45.660   -24.390   -71.398   -21.005    96.244 
 1310.000000   -57.377    98.595    21.252    44.314   -24.379   -72.352   -20.922    94.146 
 1325.000000   -50.893  -176.660    21.253    42.876   -24.384   -73.175   -21.117    95.246 
 1340.000000   -49.353   168.492    21.204    41.398   -24.307   -74.156   -20.973    93.328 
 1355.000000   -46.472  -175.301    21.222    39.858   -24.281   -74.708   -21.148    93.311 
 1370.000000   -49.336   125.188    21.180    38.476   -24.281   -75.937   -20.731    89.186 
 1385.000000   -50.071   150.023    21.145    36.992   -24.285   -76.629   -20.707    88.437 
 1400.000000   -56.656   117.294    21.097    35.518   -24.276   -77.523   -20.426    86.265 
 1415.000000   -45.878  -164.429    21.067    34.150   -24.264   -78.334   -20.771    87.283 
 1430.000000   -46.073  -178.575    21.059    32.600   -24.197   -79.505   -20.699    85.968 
 1445.000000   -44.661   178.077    21.035    31.159   -24.187   -80.274   -20.652    84.894 
 1460.000000   -47.330   122.367    21.010    29.708   -24.165   -81.404   -20.427    82.548 
 1475.000000   -48.434   155.159    20.957    28.318   -24.175   -82.127   -20.309    80.541 
 1490.000000   -46.383   149.100    20.927    26.904   -24.164   -82.827   -20.372    80.315 
 1505.000000   -43.463   142.828    20.939    25.314   -24.146   -83.916   -20.268    78.191 
 1520.000000   -45.440   145.036    20.871    24.039   -24.109   -84.659   -20.089    77.040 
 1535.000000   -44.602   145.923    20.857    22.491   -24.118   -85.801   -19.995    77.159 
 1550.000000   -50.721  -175.573    20.772    21.063   -24.094   -86.321   -20.212    73.926 
 1565.000000   -42.496  -179.546    20.802    19.696   -24.035   -87.431   -20.302    75.322 
 1580.000000   -42.802   144.254    20.749    18.215   -24.041   -88.364   -20.014    72.596 
 1600.000000   -41.907   162.303    20.722    16.372   -24.023   -89.480   -20.037    70.517 
 1615.000000   -43.540   146.817    20.683    14.960   -24.022   -90.215   -19.889    69.102 
 1635.000000   -40.329   169.544    20.624    13.174   -23.962   -91.471   -19.989    69.289 
 1650.000000   -40.068   168.132    20.652    11.493   -23.936   -92.476   -19.977    69.038 
 1670.000000   -42.177   143.820    20.591     9.651   -23.883   -93.871   -19.667    65.821 
 1685.000000   -41.137   156.656    20.553     8.283   -23.881   -94.535   -19.736    65.294 
 1705.000000   -40.710   159.025    20.511     6.499   -23.859   -95.673   -19.647    63.177 
 1720.000000   -38.586   159.025    20.451     5.057   -23.887   -96.782   -19.849    63.280 
 1740.000000   -36.491   165.215    20.457     3.055   -23.826   -98.024   -19.889    62.583 
 1755.000000   -38.760   156.263    20.417     1.657   -23.777   -98.876   -19.608    59.482 
 1775.000000   -38.103   153.131    20.352    -0.152   -23.800  -100.011   -19.610    58.414 
 1790.000000   -38.505   149.180    20.343    -1.607   -23.743  -101.088   -19.503    56.847 
 1810.000000   -36.506   156.697    20.279    -3.404   -23.730  -102.155   -19.628    55.993 
 1825.000000   -34.890   153.651    20.287    -5.001   -23.722  -103.222   -19.682    55.568 
 1845.000000   -36.308   147.914    20.226    -6.753   -23.690  -104.377   -19.525    52.030 
 1860.000000   -37.187   149.404    20.180    -8.156   -23.683  -105.038   -19.493    51.342 
 1880.000000   -36.065   149.706    20.142    -9.963   -23.642  -106.174   -19.615    51.145 
 1895.000000   -34.293   154.674    20.111   -11.258   -23.604  -107.270   -19.605    50.424 
 1915.000000   -32.967   156.614    20.095   -13.199   -23.581  -108.471   -19.714    49.741 
 1930.000000   -34.682   146.451    20.069   -14.689   -23.523  -109.744   -19.528    46.192 
 1950.000000   -33.777   147.409    20.001   -16.413   -23.557  -110.465   -19.563    45.079 
 1965.000000   -33.658   148.489    19.977   -17.880   -23.519  -111.522   -19.492    43.952 
 1985.000000   -31.925   146.594    19.928   -19.673   -23.483  -113.111   -19.551    43.370 
 2000.000000   -32.159   150.176    19.929   -21.224   -23.490  -113.815   -19.661    43.232 
 2020.000000   -32.799   143.390    19.890   -22.994   -23.459  -115.040   -19.447    40.160 
 2050.000000   -32.166   131.726    19.815   -25.793   -23.451  -116.901   -19.536    37.845 
 2090.000000   -31.365   140.431    19.720   -29.415   -23.321  -119.434   -19.570    33.976 
 2120.000000   -32.969   142.795    19.653   -32.164   -23.337  -121.121   -19.512    32.077 
 2160.000000   -28.529   139.303    19.589   -35.821   -23.301  -123.794   -19.853    31.540 
 2190.000000   -29.423   138.311    19.511   -38.649   -23.297  -125.762   -19.965    28.477 
 2230.000000   -28.240   139.880    19.424   -42.180   -23.137  -128.267   -19.946    25.822 
 2260.000000   -28.236   138.091    19.397   -44.896   -23.101  -129.961   -20.058    25.019 
 2300.000000   -26.623   130.742    19.345   -48.641   -23.049  -132.212   -20.216    21.959 
 2330.000000   -26.432   131.454    19.266   -51.349   -23.036  -134.637   -20.365    20.390 
 2370.000000   -26.679   122.441    19.193   -54.956   -22.917  -137.030   -20.092    15.367 
 2400.000000   -26.511   125.520    19.130   -57.770   -22.847  -139.126   -20.147    13.006 
 2440.000000   -25.707   120.707    19.052   -61.428   -22.881  -141.410   -20.520    10.735 
 2470.000000   -25.253   121.842    18.987   -64.088   -22.839  -143.233   -20.609     8.218 
 2510.000000   -25.287   118.453    18.888   -67.594   -22.723  -145.880   -20.563     4.190 
 2540.000000   -25.035   115.983    18.845   -70.350   -22.729  -147.825   -20.627     2.835 
 2580.000000   -24.533   113.227    18.727   -73.991   -22.661  -150.283   -20.695     1.544 
 2610.000000   -23.707   112.374    18.676   -76.501   -22.677  -152.104   -21.300    -1.919 
 2650.000000   -23.552   109.205    18.574   -79.945   -22.549  -154.964   -21.312    -4.556 
 2680.000000   -23.131   106.761    18.560   -82.777   -22.515  -156.874   -21.386    -5.577 
 2720.000000   -22.943   102.469    18.458   -86.424   -22.491  -159.356   -21.565    -8.668 
 2750.000000   -22.599   100.336    18.442   -89.278   -22.416  -161.524   -21.554   -11.528 
 2790.000000   -22.755    98.955    18.331   -92.508   -22.340  -164.146   -21.668   -15.090 
 2820.000000   -22.465    97.055    18.265   -95.281   -22.327  -166.063   -21.679   -17.256 
 2860.000000   -22.173    93.195    18.204   -98.856   -22.303  -168.387   -21.974   -20.587 
 2890.000000   -21.828    93.169    18.139  -101.352   -22.237  -170.242   -22.173   -21.723 
 2930.000000   -22.157    89.815    18.066  -104.927   -22.172  -173.172   -22.192   -26.031 
 2960.000000   -21.665    86.583    17.996  -107.558   -22.135  -175.219   -22.350   -26.729 
 3000.000000   -20.975    83.533    17.927  -110.961   -22.085  -177.691   -22.625   -27.752 
 3030.000000   -21.028    82.366    17.873  -113.858   -22.052  -179.778   -22.465   -32.873 
 3070.000000   -21.089    78.755    17.800  -117.350   -22.011   177.756   -22.675   -34.043 
 3100.000000   -20.606    75.970    17.752  -119.848   -21.978   175.747   -22.793   -37.527 
 3140.000000   -20.899    75.190    17.632  -123.174   -21.918   172.833   -22.710   -39.984 
 3170.000000   -20.750    71.541    17.571  -126.058   -21.857   170.978   -22.915   -43.906 
 3210.000000   -20.313    71.218    17.506  -129.238   -21.805   168.716   -23.477   -44.385 
 3240.000000   -20.029    66.113    17.478  -132.015   -21.765   166.473   -23.576   -46.102 
 3280.000000   -20.197    65.786    17.379  -135.603   -21.689   163.599   -23.601   -49.136 
 3310.000000   -20.303    60.767    17.330  -138.014   -21.659   161.517   -23.727   -51.559 
 3350.000000   -19.675    59.934    17.297  -141.556   -21.575   158.682   -23.890   -54.523 
 3380.000000   -19.934    58.034    17.184  -144.141   -21.588   156.731   -24.294   -56.314 
 3420.000000   -19.632    54.541    17.141  -147.602   -21.527   154.169   -24.150   -60.700 
 3450.000000   -20.119    53.900    17.076  -150.114   -21.519   152.012   -24.403   -65.197 
 3490.000000   -19.582    51.611    17.017  -153.561   -21.433   149.640   -24.835   -64.194 
 3520.000000   -19.692    49.498    16.952  -156.004   -21.437   147.542   -24.910   -65.344 
 3560.000000   -19.362    43.419    16.877  -159.718   -21.335   144.902   -24.563   -70.846 
 3590.000000   -19.450    43.426    16.844  -162.296   -21.294   142.984   -24.549   -72.704 
 3630.000000   -19.406    37.100    16.741  -165.683   -21.276   140.163   -25.083   -73.903 
 3660.000000   -19.013    37.335    16.703  -168.315   -21.206   138.349   -25.190   -77.029 
 3700.000000   -19.902    34.587    16.557  -171.388   -21.229   135.193   -25.422   -85.545 
 3730.000000   -18.771    32.879    16.580  -174.183   -21.118   133.147   -25.784   -80.620 
 3770.000000   -19.491    27.100    16.516  -177.608   -21.049   130.443   -25.700   -87.767 
 3800.000000   -19.042    25.482    16.451   179.860   -21.003   128.683   -26.001   -88.025 
 3840.000000   -19.455    24.578    16.379   176.434   -20.981   126.173   -26.045   -90.037 
 3870.000000   -19.127    17.542    16.372   173.816   -20.906   124.151   -25.702   -94.885 
 3910.000000   -19.653    17.065    16.258   170.176   -20.860   120.708   -25.710  -101.070 
 3940.000000   -19.228    12.832    16.194   168.089   -20.900   118.861   -26.616  -102.721 
 3980.000000   -19.385    12.584    16.117   164.320   -20.814   115.905   -26.262  -107.431 
 4010.000000   -19.464     8.895    16.102   162.048   -20.811   114.108   -27.028  -112.732 
 4050.000000   -18.891     6.396    16.064   158.654   -20.736   111.493   -27.066  -108.975 
 4080.000000   -19.286     1.609    16.014   155.887   -20.593   109.218   -26.678  -112.767 
 4120.000000   -19.244    -1.896    15.923   152.426   -20.566   106.219   -26.424  -120.861 
 4150.000000   -19.846    -3.668    15.842   149.990   -20.553   103.915   -26.522  -126.318 
 4190.000000   -19.484    -5.793    15.795   146.792   -20.542   101.385   -26.799  -134.343 
 4220.000000   -19.658    -8.517    15.751   144.207   -20.522    99.825   -27.251  -133.508 
 4260.000000   -19.603   -14.539    15.657   140.783   -20.422    96.679   -26.562  -141.643 
 4290.000000   -19.721   -12.356    15.616   138.480   -20.453    94.305   -27.301  -145.205 
 4330.000000   -19.475   -21.912    15.607   134.873   -20.358    91.957   -27.049  -146.390 
 4360.000000   -19.432   -23.051    15.508   132.398   -20.313    89.768   -26.766  -150.980 
 4400.000000   -19.744   -27.249    15.459   129.177   -20.279    87.144   -27.484  -156.598 
 4430.000000   -19.368   -28.348    15.433   126.625   -20.225    84.983   -26.984  -160.014 
 4470.000000   -20.002   -36.363    15.369   122.976   -20.148    82.088   -26.551  -164.292 
 4500.000000   -19.943   -39.744    15.292   120.470   -20.136    79.770   -26.213  -171.056 
 4540.000000   -20.446   -43.041    15.216   117.155   -20.099    77.164   -25.979  -175.264 
 4570.000000   -20.421   -43.825    15.146   114.769   -20.095    74.648   -25.458   176.089 
 4610.000000   -20.313   -47.262    15.113   111.390   -20.095    72.406   -26.197   173.292 
 4640.000000   -19.789   -51.558    15.094   108.903   -20.049    70.389   -26.382   173.633 
 4680.000000   -20.324   -56.033    15.005   105.562   -19.950    67.325   -25.305   167.515 
 4710.000000   -20.018   -63.486    14.980   102.814   -19.922    65.078   -25.003   165.452 
 4750.000000   -20.729   -65.301    14.909    99.661   -19.869    61.945   -24.677   157.466 
 4780.000000   -20.562   -71.238    14.856    96.961   -19.809    60.030   -24.459   159.258 
 4820.000000   -20.963   -76.361    14.775    93.429   -19.728    56.852   -23.265   154.522 
 4850.000000   -21.978   -73.017    14.676    91.720   -19.889    54.685   -23.513   142.909 
