! Mini-Circuits  
! S2P DATA File Format
! Type: MMIC Amplifier
! Model: LEE-39+
! TEST CONDITIONS: INPUT POWER = -25dBm, Icc = 35mA, Vd = 3.78V @Temperature = -45degC
! 401 Frequency points
!
! S Parameters are in dB deg format
!
# MHz S DB R 50
!    FREQ       dB(S11)   PHS(S11)  dB(S21)   PHS(S21)  dB(S12)   PHS(S12)  dB(S22)   PHS(S22) 
   50.000000   -24.065  -176.470    23.821   173.601   -26.376    -3.142   -22.339   176.567 
   65.000000   -25.725   175.668    23.837   172.066   -25.759    -3.967   -22.040   173.274 
   80.000000   -25.914   174.853    23.883   170.282   -25.868    -4.320   -21.816   176.571 
   95.000000   -27.622   170.880    23.801   168.650   -25.967    -5.388   -21.959   175.162 
  110.000000   -26.781   170.758    23.793   166.915   -25.997    -5.997   -22.626   174.808 
  125.000000   -27.774   168.459    23.754   165.286   -26.044    -7.306   -22.676   174.879 
  140.000000   -26.771   162.800    23.804   163.484   -25.990    -8.139   -22.944   173.463 
  155.000000   -27.840   163.372    23.792   161.727   -25.949    -9.781   -22.555   172.116 
  170.000000   -27.754   160.878    23.794   160.009   -25.977   -10.195   -22.626   172.428 
  185.000000   -28.564   158.831    23.730   158.344   -25.940   -10.381   -22.444   169.926 
  200.000000   -28.185   158.173    23.714   156.685   -26.021   -11.816   -22.777   170.341 
  215.000000   -28.285   155.692    23.700   154.969   -25.951   -12.375   -22.555   169.053 
  230.000000   -27.457   153.836    23.744   153.201   -25.854   -12.968   -22.702   167.670 
  245.000000   -27.159   154.679    23.710   151.375   -25.934   -13.751   -21.926   165.282 
  260.000000   -26.338   153.689    23.691   149.801   -25.903   -14.597   -21.972   165.185 
  275.000000   -26.737   152.563    23.635   148.032   -25.833   -15.857   -21.483   162.128 
  290.000000   -26.676   150.737    23.633   146.417   -25.874   -16.498   -21.635   161.768 
  305.000000   -25.802   149.350    23.619   144.731   -25.878   -17.922   -21.131   159.775 
  320.000000   -25.361   149.311    23.616   143.067   -25.834   -19.296   -21.040   158.038 
  335.000000   -24.810   148.023    23.605   141.330   -25.866   -19.035   -20.459   156.475 
  350.000000   -25.522   149.147    23.578   139.602   -25.885   -20.261   -20.284   154.589 
  365.000000   -24.824   148.285    23.540   138.001   -25.911   -20.904   -20.058   153.762 
  380.000000   -25.032   146.520    23.517   136.361   -25.862   -21.785   -20.249   152.908 
  395.000000   -24.027   144.744    23.529   134.617   -25.809   -22.895   -20.107   151.955 
  410.000000   -24.228   141.948    23.511   132.976   -25.791   -23.321   -19.863   151.076 
  425.000000   -23.873   140.912    23.505   131.225   -25.815   -24.845   -19.514   148.861 
  440.000000   -24.496   140.526    23.427   129.661   -25.799   -25.376   -19.400   147.955 
  455.000000   -24.272   139.705    23.421   128.021   -25.768   -25.760   -19.564   147.148 
  470.000000   -24.740   135.945    23.375   126.517   -25.752   -26.825   -19.598   146.107 
  485.000000   -23.692   133.641    23.406   124.645   -25.744   -27.778   -19.691   145.245 
  500.000000   -24.213   134.277    23.376   123.061   -25.695   -28.822   -19.352   143.817 
  515.000000   -23.846   130.253    23.366   121.370   -25.721   -30.171   -19.284   142.889 
  530.000000   -24.456   129.997    23.307   119.847   -25.742   -30.916   -19.090   141.184 
  545.000000   -24.596   128.424    23.287   118.226   -25.716   -31.366   -19.473   141.130 
  560.000000   -24.301   126.606    23.292   116.477   -25.655   -32.402   -19.406   139.054 
  575.000000   -24.314   125.449    23.275   114.828   -25.672   -33.664   -19.453   138.192 
  590.000000   -23.831   124.871    23.259   113.180   -25.606   -34.473   -19.071   135.507 
  605.000000   -24.786   122.062    23.205   111.523   -25.663   -35.321   -19.164   134.741 
  620.000000   -24.754   120.767    23.181   110.037   -25.678   -36.063   -19.109   133.642 
  635.000000   -24.982   120.554    23.147   108.340   -25.632   -37.041   -19.281   131.640 
  650.000000   -24.072   116.926    23.162   106.710   -25.563   -38.109   -19.186   131.194 
  665.000000   -24.319   116.558    23.137   105.098   -25.578   -38.963   -19.039   129.377 
  680.000000   -24.023   114.861    23.108   103.488   -25.550   -39.786   -18.930   127.676 
  695.000000   -24.564   112.539    23.068   102.002   -25.590   -40.598   -18.780   126.125 
  710.000000   -24.071   110.864    23.033   100.341   -25.565   -41.661   -19.002   125.954 
  725.000000   -24.383   108.848    23.018    98.691   -25.483   -42.665   -18.895   124.685 
  740.000000   -23.955   106.643    23.002    97.093   -25.502   -43.694   -18.975   123.355 
  755.000000   -24.358   105.704    22.973    95.513   -25.493   -44.534   -18.706   121.822 
  770.000000   -24.424   104.360    22.933    93.929   -25.450   -45.467   -18.711   120.666 
  785.000000   -23.861   100.956    22.953    92.240   -25.465   -46.181   -18.725   119.344 
  800.000000   -23.875   101.809    22.913    90.665   -25.381   -47.152   -18.423   116.874 
  815.000000   -24.000    98.286    22.905    88.980   -25.452   -47.927   -18.539   116.069 
  830.000000   -24.385    97.180    22.842    87.492   -25.419   -49.050   -18.369   114.552 
  845.000000   -24.603    95.600    22.816    85.873   -25.432   -49.932   -18.636   114.088 
  860.000000   -24.198    93.242    22.789    84.310   -25.317   -51.102   -18.586   112.579 
  875.000000   -24.023    91.508    22.791    82.639   -25.380   -51.746   -18.718   111.357 
  890.000000   -24.037    91.262    22.770    81.014   -25.337   -52.700   -18.335   109.114 
  905.000000   -24.568    90.537    22.737    79.469   -25.382   -53.562   -18.378   107.671 
  920.000000   -24.661    89.343    22.684    77.963   -25.315   -54.617   -18.385   105.862 
  935.000000   -24.910    88.104    22.657    76.368   -25.339   -55.697   -18.530   104.894 
  950.000000   -24.378    85.843    22.661    74.634   -25.285   -56.421   -18.532   103.464 
  965.000000   -24.614    85.116    22.633    73.104   -25.238   -57.446   -18.388   101.777 
  980.000000   -24.274    83.111    22.623    71.558   -25.237   -58.329   -18.330    99.975 
  995.000000   -25.013    82.326    22.558    70.020   -25.213   -59.202   -18.164    98.347 
 1010.000000   -24.709    81.610    22.545    68.534   -25.271   -60.214   -18.377    97.317 
 1025.000000   -24.849    79.420    22.490    66.827   -25.195   -61.186   -18.318    95.989 
 1040.000000   -24.362    77.805    22.507    65.240   -25.199   -62.330   -18.480    94.827 
 1055.000000   -24.511    74.403    22.479    63.733   -25.152   -63.171   -18.046    93.284 
 1070.000000   -24.714    72.964    22.450    62.105   -25.150   -64.059   -18.127    91.659 
 1085.000000   -24.728    71.733    22.391    60.650   -25.097   -64.989   -17.911    89.991 
 1100.000000   -24.835    70.968    22.379    59.055   -25.158   -65.959   -18.160    89.910 
 1115.000000   -24.329    70.299    22.359    57.543   -25.051   -67.066   -18.012    88.525 
 1130.000000   -24.200    67.858    22.351    55.892   -25.065   -67.882   -17.991    87.716 
 1145.000000   -24.181    64.952    22.332    54.267   -25.071   -68.836   -17.754    85.539 
 1160.000000   -24.841    64.075    22.276    52.730   -25.046   -69.771   -17.762    84.234 
 1175.000000   -24.490    62.728    22.242    51.291   -25.012   -70.665   -17.834    83.539 
 1190.000000   -24.812    60.871    22.203    49.745   -24.971   -71.726   -17.825    82.296 
 1205.000000   -24.268    58.662    22.218    48.133   -24.968   -72.331   -17.842    81.408 
 1220.000000   -24.275    59.253    22.175    46.582   -24.939   -73.652   -17.621    79.637 
 1235.000000   -24.137    57.963    22.170    44.998   -24.926   -74.419   -17.687    78.533 
 1250.000000   -24.481    57.051    22.111    43.542   -24.936   -75.520   -17.544    76.891 
 1265.000000   -24.638    54.281    22.080    42.010   -24.944   -76.122   -17.824    76.633 
 1280.000000   -24.777    52.062    22.046    40.539   -24.848   -77.419   -17.728    74.708 
 1295.000000   -24.503    51.248    22.052    38.919   -24.857   -78.287   -17.831    73.655 
 1310.000000   -24.533    49.635    22.021    37.348   -24.832   -79.360   -17.626    71.307 
 1325.000000   -24.927    49.531    21.989    35.833   -24.857   -80.290   -17.677    70.677 
 1340.000000   -24.972    49.324    21.950    34.298   -24.824   -81.050   -17.600    68.953 
 1355.000000   -25.284    48.375    21.918    32.744   -24.773   -82.191   -17.817    68.234 
 1370.000000   -24.805    46.356    21.913    31.259   -24.735   -83.120   -17.811    66.330 
 1385.000000   -25.009    44.961    21.878    29.730   -24.726   -84.220   -17.698    64.709 
 1400.000000   -25.010    42.335    21.855    28.088   -24.740   -84.878   -17.603    63.189 
 1415.000000   -25.677    42.382    21.798    26.679   -24.732   -86.059   -17.577    61.511 
 1430.000000   -25.591    41.862    21.784    25.108   -24.723   -86.978   -17.777    61.077 
 1445.000000   -25.695    41.679    21.746    23.673   -24.664   -88.049   -17.707    59.616 
 1460.000000   -24.979    39.590    21.746    22.059   -24.595   -89.018   -17.836    58.696 
 1475.000000   -25.461    37.616    21.714    20.509   -24.565   -90.133   -17.494    55.948 
 1490.000000   -25.506    37.458    21.684    19.049   -24.640   -91.017   -17.586    55.291 
 1505.000000   -25.451    38.326    21.664    17.454   -24.567   -91.970   -17.797    54.429 
 1520.000000   -25.563    35.627    21.637    15.946   -24.534   -93.005   -17.467    52.496 
 1535.000000   -25.666    34.275    21.609    14.387   -24.550   -93.788   -17.397    51.900 
 1550.000000   -25.561    28.604    21.541    12.768   -24.604   -94.757   -17.297    48.160 
 1565.000000   -26.547    30.188    21.513    11.524   -24.518   -95.584   -17.724    49.238 
 1580.000000   -25.927    31.661    21.493     9.914   -24.494   -96.775   -17.642    47.689 
 1600.000000   -26.546    29.040    21.461     7.978   -24.408   -98.228   -17.643    45.513 
 1615.000000   -26.220    26.907    21.459     6.352   -24.427   -99.028   -17.641    44.398 
 1635.000000   -27.106    25.125    21.396     4.491   -24.393  -100.404   -17.530    42.816 
 1650.000000   -27.208    23.745    21.376     2.912   -24.392  -101.298   -17.780    42.883 
 1670.000000   -26.580    21.442    21.358     0.895   -24.333  -102.935   -17.733    41.102 
 1685.000000   -27.188    20.066    21.316    -0.567   -24.307  -103.892   -17.692    39.738 
 1705.000000   -27.443    17.490    21.292    -2.617   -24.288  -105.136   -17.699    37.492 
 1720.000000   -27.868    17.745    21.228    -4.081   -24.276  -106.033   -17.658    35.949 
 1740.000000   -28.657    17.803    21.193    -6.042   -24.271  -107.272   -17.931    35.189 
 1755.000000   -28.038    13.627    21.178    -7.527   -24.197  -108.611   -17.894    33.904 
 1775.000000   -28.139    13.394    21.133    -9.627   -24.158  -109.925   -17.808    32.000 
 1790.000000   -28.186    11.251    21.135   -11.063   -24.202  -110.696   -17.812    30.883 
 1810.000000   -28.890    10.220    21.050   -13.066   -24.161  -112.008   -17.758    28.211 
 1825.000000   -29.247    12.752    21.026   -14.575   -24.138  -112.917   -17.950    27.967 
 1845.000000   -28.862     8.195    21.000   -16.541   -24.109  -114.487   -18.060    25.748 
 1860.000000   -28.871     3.864    20.970   -18.039   -24.078  -115.316   -17.856    24.224 
 1880.000000   -29.123     3.539    20.936   -19.986   -24.059  -116.774   -17.939    22.932 
 1895.000000   -30.053     4.487    20.902   -21.425   -24.039  -117.695   -17.838    21.502 
 1915.000000   -31.131     5.001    20.836   -23.283   -23.982  -119.089   -18.048    20.711 
 1930.000000   -29.742     1.987    20.844   -24.938   -23.936  -120.125   -18.140    18.825 
 1950.000000   -30.461     1.759    20.792   -26.907   -23.914  -121.499   -17.975    16.719 
 1965.000000   -30.576    -0.976    20.781   -28.421   -23.931  -122.347   -17.946    15.372 
 1985.000000   -31.231     3.693    20.722   -30.320   -23.896  -123.810   -17.914    14.082 
 2000.000000   -31.676    -2.233    20.691   -31.733   -23.875  -124.941   -18.110    13.487 
 2020.000000   -30.649    -3.235    20.679   -33.783   -23.847  -126.360   -18.120    12.090 
 2050.000000   -29.981     0.059    20.607   -36.763   -23.847  -128.616   -18.053     8.623 
 2090.000000   -31.687    -7.245    20.539   -40.643   -23.754  -130.999   -18.008     4.954 
 2120.000000   -31.071   -21.783    20.469   -43.580   -23.656  -133.026   -18.094     2.949 
 2160.000000   -34.656     3.201    20.398   -47.427   -23.623  -135.722   -18.171     0.195 
 2190.000000   -33.731   -15.593    20.307   -50.404   -23.653  -138.329   -18.188    -3.456 
 2230.000000   -37.259   -14.425    20.253   -54.194   -23.499  -140.691   -18.301    -5.626 
 2260.000000   -37.324   -22.697    20.216   -57.037   -23.451  -142.583   -18.511    -5.737 
 2300.000000   -38.877     5.613    20.126   -60.995   -23.433  -145.250   -18.714    -9.670 
 2330.000000   -41.793    -0.359    20.043   -63.719   -23.355  -147.716   -18.800   -11.389 
 2370.000000   -38.039    -4.466    20.002   -67.719   -23.281  -150.432   -18.742   -14.876 
 2400.000000   -43.904   -18.871    19.967   -70.790   -23.236  -152.391   -18.907   -16.693 
 2440.000000   -44.123    19.593    19.864   -74.552   -23.197  -155.160   -19.187   -20.043 
 2470.000000   -48.629    55.162    19.802   -77.500   -23.184  -157.598   -19.214   -23.110 
 2510.000000   -48.375    60.849    19.726   -81.171   -23.055  -160.240   -19.187   -26.357 
 2540.000000   -48.121    80.075    19.680   -84.064   -23.053  -162.376   -19.361   -27.947 
 2580.000000   -44.408    88.543    19.585   -88.038   -23.003  -165.214   -19.279   -30.506 
 2610.000000   -39.288   101.512    19.497   -90.645   -22.997  -166.912   -19.764   -35.346 
 2650.000000   -38.302   100.697    19.436   -94.374   -22.861  -169.924   -19.826   -37.273 
 2680.000000   -36.681    95.888    19.397   -97.379   -22.807  -172.234   -20.079   -37.750 
 2720.000000   -36.497    86.042    19.276  -101.138   -22.779  -174.942   -20.132   -41.894 
 2750.000000   -34.572    85.057    19.274  -104.226   -22.692  -177.495   -20.094   -44.521 
 2790.000000   -35.579    90.221    19.181  -107.671   -22.723  -179.991   -20.430   -47.074 
 2820.000000   -34.296    83.918    19.149  -110.628   -22.589   177.446   -20.449   -48.976 
 2860.000000   -33.288    78.534    19.048  -114.458   -22.546   174.753   -20.656   -53.548 
 2890.000000   -31.792    83.172    18.999  -117.133   -22.488   172.663   -20.799   -55.790 
 2930.000000   -32.799    78.890    18.939  -121.087   -22.429   169.939   -20.886   -59.576 
 2960.000000   -31.300    71.254    18.869  -123.677   -22.436   167.903   -21.037   -61.356 
 3000.000000   -29.192    67.989    18.799  -127.394   -22.338   164.904   -21.215   -63.999 
 3030.000000   -29.557    66.659    18.748  -130.382   -22.299   162.660   -21.223   -66.703 
 3070.000000   -29.121    62.897    18.686  -134.184   -22.222   159.675   -21.633   -69.323 
 3100.000000   -27.921    59.564    18.629  -136.827   -22.191   157.413   -21.726   -73.591 
 3140.000000   -28.223    61.938    18.539  -140.578   -22.113   154.502   -21.726   -76.807 
 3170.000000   -27.920    53.297    18.468  -143.499   -22.131   152.348   -21.911   -80.414 
 3210.000000   -26.469    56.016    18.414  -146.934   -22.051   149.788   -22.396   -84.117 
 3240.000000   -26.476    48.508    18.363  -149.847   -22.003   147.435   -22.382   -88.286 
 3280.000000   -26.151    47.780    18.297  -153.676   -21.944   144.465   -22.395   -91.566 
 3310.000000   -26.608    41.715    18.229  -156.333   -21.904   142.223   -22.607   -94.637 
 3350.000000   -25.189    38.692    18.175  -160.176   -21.841   139.052   -22.659   -97.182 
 3380.000000   -25.845    37.307    18.070  -162.904   -21.836   136.981   -22.827  -101.276 
 3420.000000   -24.977    31.207    18.019  -166.464   -21.755   134.061   -22.683  -104.425 
 3450.000000   -26.048    34.039    17.971  -169.319   -21.716   131.779   -22.829  -108.807 
 3490.000000   -25.047    29.449    17.902  -172.832   -21.677   129.182   -23.361  -109.479 
 3520.000000   -24.958    28.104    17.879  -175.656   -21.618   126.863   -23.197  -110.556 
 3560.000000   -24.256    18.953    17.799  -179.506   -21.544   123.685   -23.025  -114.925 
 3590.000000   -24.239    20.762    17.772   177.718   -21.504   121.502   -23.121  -116.775 
 3630.000000   -24.531    12.087    17.673   174.112   -21.453   118.416   -23.389  -120.352 
 3660.000000   -23.420    12.953    17.618   171.273   -21.427   116.462   -23.506  -124.948 
 3700.000000   -25.224    11.390    17.488   167.694   -21.434   113.142   -23.295  -131.200 
 3730.000000   -22.783    10.153    17.501   164.995   -21.335   111.639   -24.408  -130.056 
 3770.000000   -23.962     2.963    17.414   161.368   -21.291   108.085   -24.113  -134.990 
 3800.000000   -22.984     1.803    17.397   158.691   -21.187   105.950   -24.608  -136.938 
 3840.000000   -23.533     2.501    17.345   155.012   -21.119   102.783   -24.457  -138.776 
 3870.000000   -23.139    -9.618    17.303   152.196   -21.115   100.714   -24.258  -142.532 
 3910.000000   -23.481    -8.374    17.214   148.202   -20.998    97.599   -23.908  -147.292 
 3940.000000   -23.507   -13.235    17.118   145.975   -21.044    95.297   -24.415  -153.006 
 3980.000000   -23.150   -12.823    17.068   141.996   -20.958    92.094   -24.306  -154.967 
 4010.000000   -23.514   -11.009    16.985   139.766   -21.035    90.260   -24.772  -165.980 
 4050.000000   -22.199   -17.784    17.000   135.994   -20.910    87.610   -25.267  -159.193 
 4080.000000   -22.887   -22.993    16.939   133.099   -20.845    84.802   -24.902  -161.252 
 4120.000000   -22.497   -28.093    16.860   129.224   -20.760    81.819   -24.838  -166.886 
 4150.000000   -23.676   -29.380    16.778   126.659   -20.709    79.117   -24.507  -170.574 
 4190.000000   -23.440   -33.605    16.702   123.049   -20.712    75.938   -24.352  -179.120 
 4220.000000   -23.252   -31.066    16.671   120.637   -20.675    74.296   -25.204   178.184 
 4260.000000   -23.128   -41.310    16.620   116.748   -20.604    70.869   -24.249   174.873 
 4290.000000   -23.416   -35.152    16.553   114.211   -20.616    68.458   -24.476   169.974 
 4330.000000   -22.819   -49.597    16.567   110.440   -20.494    66.084   -24.471   171.203 
 4360.000000   -22.533   -47.506    16.450   107.948   -20.467    63.506   -24.418   165.901 
 4400.000000   -23.452   -49.372    16.408   104.457   -20.482    60.686   -24.984   160.157 
 4430.000000   -22.455   -52.071    16.383   101.568   -20.383    58.395   -24.761   159.761 
 4470.000000   -23.336   -57.915    16.321    97.734   -20.313    55.411   -24.732   158.955 
 4500.000000   -23.720   -60.748    16.208    95.214   -20.292    52.485   -24.324   151.427 
 4540.000000   -23.971   -64.517    16.195    91.602   -20.224    49.653   -24.537   151.252 
 4570.000000   -23.973   -64.637    16.113    89.054   -20.270    46.949   -24.067   143.783 
 4610.000000   -23.316   -64.455    16.097    85.469   -20.216    44.788   -25.213   140.486 
 4640.000000   -23.245   -71.644    16.053    82.720   -20.178    42.238   -25.021   138.289 
 4680.000000   -23.465   -73.083    15.977    79.121   -20.092    39.038   -24.467   133.293 
 4710.000000   -23.472   -83.898    15.967    76.250   -20.026    36.715   -24.336   130.899 
 4750.000000   -24.041   -82.308    15.880    72.888   -20.019    33.752   -24.313   123.633 
 4780.000000   -24.229   -90.522    15.806    69.966   -19.936    31.235   -23.956   124.731 
 4820.000000   -24.009   -93.852    15.801    66.261   -19.843    27.878   -23.239   122.714 
 4850.000000   -26.274   -82.582    15.656    64.406   -19.966    25.070   -22.940   111.250 
