! Mini-Circuits  
! S2P DATA File Format
! Type: MMIC Amplifier
! Model: LEE-39+
! TEST CONDITIONS: INPUT POWER = -25dBm, Icc = 42mA, Vd = 3.80V @Temperature = -45degC
! 401 Frequency points
!
! S Parameters are in dB deg format
!
# MHz S DB R 50
!    FREQ       dB(S11)   PHS(S11)  dB(S21)   PHS(S21)  dB(S12)   PHS(S12)  dB(S22)   PHS(S22) 
   50.000000   -20.201  -179.753    24.160   173.549   -26.284    -4.934   -18.552   174.607 
   65.000000   -21.249   174.172    24.159   172.004   -26.276    -4.004   -18.445   173.501 
   80.000000   -21.603   172.750    24.222   170.210   -26.453    -4.368   -18.444   174.250 
   95.000000   -21.860   170.256    24.189   168.547   -26.207    -5.744   -18.836   173.801 
  110.000000   -21.513   170.018    24.179   166.791   -26.283    -6.680   -19.022   172.537 
  125.000000   -21.892   166.754    24.130   165.182   -26.308    -6.700   -18.975   172.430 
  140.000000   -21.810   163.308    24.132   163.378   -26.329    -8.661   -19.051   169.988 
  155.000000   -22.374   162.960    24.120   161.620   -26.386    -9.231   -18.966   168.623 
  170.000000   -22.491   160.582    24.136   159.858   -26.311    -9.553   -19.209   168.537 
  185.000000   -22.407   158.340    24.115   158.226   -26.337   -10.604   -19.167   167.035 
  200.000000   -22.101   157.590    24.092   156.457   -26.251   -11.152   -19.142   166.097 
  215.000000   -22.152   155.087    24.065   154.739   -26.309   -11.962   -18.860   164.497 
  230.000000   -22.203   153.216    24.069   152.954   -26.326   -12.806   -18.826   162.698 
  245.000000   -22.122   153.707    24.035   151.144   -26.305   -13.907   -18.597   161.305 
  260.000000   -21.660   152.538    24.024   149.504   -26.280   -14.298   -18.879   160.547 
  275.000000   -21.466   150.429    24.006   147.802   -26.258   -15.292   -18.566   158.855 
  290.000000   -21.345   149.044    23.998   146.057   -26.217   -16.480   -18.384   157.805 
  305.000000   -21.126   147.413    23.962   144.477   -26.290   -17.708   -17.892   155.709 
  320.000000   -21.174   147.314    23.931   142.762   -26.184   -18.010   -17.849   154.021 
  335.000000   -20.882   145.905    23.928   140.996   -26.249   -19.051   -17.669   152.880 
  350.000000   -21.131   145.717    23.928   139.262   -26.222   -19.874   -17.696   151.165 
  365.000000   -20.405   144.411    23.896   137.567   -26.207   -20.528   -17.512   150.264 
  380.000000   -20.477   142.708    23.856   135.915   -26.200   -21.251   -17.509   149.096 
  395.000000   -20.162   141.497    23.837   134.220   -26.134   -22.382   -17.242   147.700 
  410.000000   -20.510   139.005    23.810   132.636   -26.170   -23.379   -17.148   146.876 
  425.000000   -20.400   138.211    23.813   130.929   -26.209   -24.184   -17.038   145.278 
  440.000000   -20.431   137.069    23.781   129.198   -26.163   -24.805   -17.081   144.192 
  455.000000   -20.190   135.454    23.777   127.548   -26.125   -25.797   -17.097   143.092 
  470.000000   -20.320   132.434    23.728   126.082   -26.176   -26.642   -16.984   141.698 
  485.000000   -20.053   131.148    23.709   124.297   -26.109   -27.315   -16.958   140.763 
  500.000000   -20.495   130.507    23.667   122.638   -26.100   -28.614   -16.880   139.538 
  515.000000   -20.374   127.398    23.676   120.991   -26.116   -29.360   -16.957   138.438 
  530.000000   -20.370   126.684    23.649   119.381   -26.042   -30.127   -16.961   137.182 
  545.000000   -20.336   124.768    23.621   117.786   -26.091   -31.357   -17.009   136.264 
  560.000000   -20.286   123.259    23.592   116.112   -26.041   -32.251   -16.838   134.116 
  575.000000   -20.641   122.107    23.565   114.483   -26.040   -33.062   -16.845   133.030 
  590.000000   -20.409   121.254    23.552   112.754   -26.027   -33.933   -16.758   131.022 
  605.000000   -20.779   118.783    23.529   111.084   -25.913   -34.542   -16.946   130.275 
  620.000000   -20.503   117.016    23.514   109.565   -25.964   -35.219   -16.878   128.973 
  635.000000   -20.551   116.200    23.476   107.879   -25.971   -36.644   -16.903   126.834 
  650.000000   -20.316   113.656    23.456   106.242   -25.921   -37.298   -16.723   126.085 
  665.000000   -20.655   112.994    23.419   104.721   -25.917   -37.976   -16.708   124.343 
  680.000000   -20.577   111.312    23.409   103.011   -25.926   -38.889   -16.725   123.046 
  695.000000   -20.583   109.000    23.390   101.507   -25.898   -40.176   -16.739   121.967 
  710.000000   -20.166   107.207    23.357    99.839   -25.885   -41.041   -16.771   120.827 
  725.000000   -20.367   105.473    23.321    98.232   -25.859   -41.930   -16.549   119.541 
  740.000000   -20.470   103.724    23.289    96.619   -25.872   -42.856   -16.562   118.118 
  755.000000   -20.325   102.272    23.291    94.948   -25.812   -43.723   -16.612   117.123 
  770.000000   -20.300   100.391    23.239    93.362   -25.836   -44.510   -16.495   115.645 
  785.000000   -20.338    98.332    23.233    91.745   -25.829   -45.302   -16.429   114.034 
  800.000000   -20.441    98.558    23.186    90.179   -25.771   -46.176   -16.361   112.296 
  815.000000   -20.596    95.676    23.179    88.452   -25.755   -47.316   -16.579   111.392 
  830.000000   -20.438    94.172    23.148    86.960   -25.752   -48.545   -16.515   110.265 
  845.000000   -20.576    92.384    23.130    85.252   -25.725   -49.361   -16.543   109.030 
  860.000000   -20.341    90.511    23.081    83.810   -25.719   -50.002   -16.393   107.345 
  875.000000   -20.583    88.841    23.060    82.124   -25.728   -51.112   -16.454   105.931 
  890.000000   -20.646    88.499    23.045    80.507   -25.663   -51.899   -16.330   104.156 
  905.000000   -20.863    87.258    23.019    78.902   -25.622   -52.618   -16.494   103.097 
  920.000000   -20.598    85.558    22.998    77.392   -25.661   -53.737   -16.470   101.467 
  935.000000   -20.707    83.992    22.948    75.765   -25.621   -54.567   -16.491   100.113 
  950.000000   -20.642    82.449    22.933    74.123   -25.628   -55.575   -16.381    98.296 
  965.000000   -21.002    81.438    22.882    72.584   -25.596   -56.473   -16.370    96.897 
  980.000000   -20.935    79.835    22.889    71.025   -25.572   -57.340   -16.394    95.359 
  995.000000   -21.025    78.292    22.854    69.461   -25.540   -58.407   -16.400    94.194 
 1010.000000   -20.767    77.143    22.851    67.860   -25.530   -59.295   -16.418    92.592 
 1025.000000   -20.791    75.131    22.784    66.325   -25.518   -60.342   -16.292    91.136 
 1040.000000   -20.844    74.232    22.760    64.694   -25.509   -61.185   -16.345    89.569 
 1055.000000   -21.003    71.271    22.735    63.214   -25.469   -62.038   -16.185    88.631 
 1070.000000   -21.101    69.718    22.718    61.586   -25.455   -63.167   -16.349    87.386 
 1085.000000   -20.760    68.077    22.686    59.973   -25.408   -64.006   -16.221    85.978 
 1100.000000   -20.769    67.093    22.655    58.449   -25.395   -64.967   -16.274    85.086 
 1115.000000   -20.636    66.300    22.615    56.927   -25.401   -65.805   -16.061    83.470 
 1130.000000   -20.881    64.496    22.598    55.404   -25.361   -67.088   -16.070    82.528 
 1145.000000   -20.892    61.979    22.581    53.681   -25.395   -67.828   -15.973    80.857 
 1160.000000   -21.063    60.681    22.549    52.138   -25.303   -68.726   -16.116    79.922 
 1175.000000   -20.672    59.033    22.518    50.599   -25.300   -69.664   -16.116    78.801 
 1190.000000   -20.774    57.283    22.478    49.121   -25.299   -70.534   -16.047    77.477 
 1205.000000   -20.822    55.903    22.454    47.566   -25.280   -71.492   -15.967    76.189 
 1220.000000   -20.891    55.749    22.409    46.046   -25.240   -72.401   -15.936    74.996 
 1235.000000   -20.963    54.475    22.409    44.453   -25.234   -73.351   -16.053    73.891 
 1250.000000   -20.784    53.161    22.391    42.983   -25.196   -74.396   -16.046    72.587 
 1265.000000   -20.834    50.634    22.364    41.403   -25.200   -75.415   -16.107    71.504 
 1280.000000   -20.948    48.624    22.295    39.878   -25.179   -76.120   -15.971    69.666 
 1295.000000   -21.087    47.901    22.293    38.362   -25.127   -77.248   -15.987    68.289 
 1310.000000   -21.169    46.147    22.259    36.812   -25.180   -78.062   -15.965    66.598 
 1325.000000   -21.318    45.542    22.245    35.228   -25.107   -78.914   -16.135    66.061 
 1340.000000   -21.070    44.539    22.215    33.685   -25.098   -80.042   -16.067    64.453 
 1355.000000   -21.226    43.291    22.178    32.187   -25.057   -80.960   -16.139    63.304 
 1370.000000   -21.217    41.838    22.143    30.736   -25.098   -81.904   -16.054    61.293 
 1385.000000   -21.541    40.653    22.104    29.159   -25.020   -82.999   -16.034    59.932 
 1400.000000   -21.697    38.402    22.098    27.552   -25.007   -83.614   -16.013    58.647 
 1415.000000   -21.735    37.302    22.064    26.058   -24.970   -84.922   -16.091    57.304 
 1430.000000   -21.575    36.561    22.043    24.498   -24.996   -85.813   -16.162    56.216 
 1445.000000   -21.573    35.500    21.988    23.054   -24.923   -86.747   -16.044    54.700 
 1460.000000   -21.519    34.554    21.965    21.548   -24.920   -87.716   -16.075    53.396 
 1475.000000   -21.883    32.598    21.932    19.982   -24.916   -88.591   -15.948    51.521 
 1490.000000   -21.941    31.917    21.917    18.493   -24.876   -89.731   -16.113    50.886 
 1505.000000   -21.888    31.904    21.882    16.951   -24.827   -90.693   -16.060    49.296 
 1520.000000   -22.029    29.619    21.857    15.446   -24.849   -91.760   -15.926    47.930 
 1535.000000   -22.024    28.391    21.841    13.828   -24.824   -92.741   -15.976    47.485 
 1550.000000   -21.596    23.711    21.785    12.135   -24.841   -93.458   -15.905    44.370 
 1565.000000   -22.200    23.691    21.767    10.942   -24.737   -94.722   -16.176    44.475 
 1580.000000   -22.032    24.456    21.715     9.354   -24.731   -95.336   -16.012    42.876 
 1600.000000   -22.673    22.173    21.670     7.437   -24.696   -96.815   -16.088    40.843 
 1615.000000   -22.612    20.769    21.672     5.878   -24.682   -97.865   -16.152    39.892 
 1635.000000   -22.659    17.823    21.627     3.916   -24.630   -99.169   -16.176    38.570 
 1650.000000   -22.698    16.354    21.621     2.352   -24.613  -100.281   -16.255    37.928 
 1670.000000   -22.582    14.834    21.565     0.339   -24.609  -101.518   -16.159    35.868 
 1685.000000   -23.153    13.341    21.522    -1.137   -24.589  -102.263   -16.197    34.774 
 1705.000000   -23.369    10.933    21.507    -3.108   -24.516  -103.712   -16.301    32.841 
 1720.000000   -23.225     9.741    21.463    -4.630   -24.518  -104.812   -16.361    31.684 
 1740.000000   -23.532     8.084    21.418    -6.658   -24.484  -106.173   -16.457    30.289 
 1755.000000   -23.509     6.067    21.387    -8.090   -24.460  -107.019   -16.329    28.597 
 1775.000000   -23.803     4.988    21.332   -10.074   -24.452  -108.432   -16.345    27.103 
 1790.000000   -23.954     3.787    21.347   -11.570   -24.394  -109.454   -16.429    26.074 
 1810.000000   -23.827     1.111    21.294   -13.609   -24.385  -110.801   -16.429    23.838 
 1825.000000   -23.987     1.284    21.252   -15.101   -24.335  -111.949   -16.528    23.012 
 1845.000000   -24.125    -1.028    21.192   -17.002   -24.340  -113.181   -16.492    20.443 
 1860.000000   -24.281    -4.112    21.163   -18.557   -24.318  -113.964   -16.429    19.425 
 1880.000000   -24.447    -5.266    21.150   -20.546   -24.251  -115.540   -16.605    18.358 
 1895.000000   -24.599    -6.584    21.123   -21.958   -24.253  -116.280   -16.563    17.123 
 1915.000000   -24.967    -8.092    21.063   -23.881   -24.215  -117.899   -16.635    15.492 
 1930.000000   -24.696    -9.147    21.036   -25.403   -24.192  -118.704   -16.607    13.650 
 1950.000000   -25.316    -9.974    20.990   -27.356   -24.105  -120.130   -16.596    11.901 
 1965.000000   -25.395   -12.211    20.979   -28.881   -24.109  -121.145   -16.632    10.866 
 1985.000000   -25.325   -12.340    20.944   -30.813   -24.096  -122.688   -16.612     9.630 
 2000.000000   -25.270   -16.062    20.901   -32.268   -24.107  -123.557   -16.708     8.460 
 2020.000000   -25.351   -15.963    20.853   -34.253   -24.032  -124.969   -16.597     6.537 
 2050.000000   -25.246   -15.231    20.792   -37.154   -24.026  -127.145   -16.679     3.712 
 2090.000000   -26.253   -21.863    20.729   -41.147   -23.971  -129.725   -16.670     0.098 
 2120.000000   -25.832   -30.503    20.646   -44.005   -23.922  -130.988   -16.771    -1.916 
 2160.000000   -27.841   -25.136    20.596   -47.975   -23.793  -134.493   -16.929    -4.537 
 2190.000000   -26.871   -33.898    20.513   -50.866   -23.813  -136.617   -16.980    -8.025 
 2230.000000   -27.926   -38.612    20.463   -54.636   -23.721  -139.373   -17.073   -10.235 
 2260.000000   -27.934   -43.345    20.416   -57.564   -23.644  -141.227   -17.220   -11.231 
 2300.000000   -29.330   -40.111    20.323   -61.507   -23.611  -144.486   -17.377   -15.027 
 2330.000000   -29.726   -47.848    20.236   -64.219   -23.534  -146.062   -17.465   -16.940 
 2370.000000   -29.347   -45.611    20.183   -68.229   -23.463  -148.839   -17.326   -20.487 
 2400.000000   -30.576   -56.646    20.124   -71.129   -23.428  -151.298   -17.519   -22.848 
 2440.000000   -32.365   -56.317    20.038   -74.942   -23.397  -153.592   -17.788   -25.732 
 2470.000000   -33.383   -66.195    19.972   -77.838   -23.340  -156.148   -17.891   -28.660 
 2510.000000   -33.913   -70.050    19.912   -81.502   -23.263  -158.634   -17.915   -31.663 
 2540.000000   -34.468   -76.923    19.864   -84.530   -23.194  -161.303   -18.075   -33.394 
 2580.000000   -34.594   -81.241    19.771   -88.418   -23.128  -163.827   -18.110   -36.104 
 2610.000000   -37.104   -94.229    19.696   -91.023   -23.123  -165.940   -18.556   -40.429 
 2650.000000   -36.553   -99.231    19.621   -94.812   -23.008  -168.807   -18.613   -42.626 
 2680.000000   -38.491  -104.863    19.588   -97.742   -22.996  -170.374   -18.767   -43.928 
 2720.000000   -38.605  -101.794    19.474  -101.494   -22.941  -173.791   -18.842   -48.098 
 2750.000000   -41.603  -109.789    19.444  -104.612   -22.831  -176.013   -18.809   -50.425 
 2790.000000   -40.610  -130.087    19.352  -108.057   -22.855  -178.495   -19.004   -53.856 
 2820.000000   -44.792  -147.193    19.293  -111.016   -22.771   179.079   -19.053   -55.504 
 2860.000000   -49.191   167.830    19.198  -114.751   -22.748   176.508   -19.238   -60.062 
 2890.000000   -41.972   137.837    19.157  -117.482   -22.648   174.123   -19.428   -61.587 
 2930.000000   -43.562   150.041    19.102  -121.296   -22.576   171.527   -19.562   -65.426 
 2960.000000   -41.843   106.470    19.024  -123.999   -22.598   169.215   -19.721   -67.480 
 3000.000000   -38.156    92.752    18.976  -127.745   -22.469   166.363   -19.996   -69.867 
 3030.000000   -38.401    92.600    18.903  -130.760   -22.463   164.128   -19.825   -73.126 
 3070.000000   -36.820    82.804    18.833  -134.407   -22.404   161.135   -20.104   -75.886 
 3100.000000   -34.184    73.647    18.771  -137.088   -22.328   158.910   -20.308   -80.126 
 3140.000000   -34.140    83.794    18.691  -140.854   -22.281   155.973   -20.344   -82.988 
 3170.000000   -33.752    66.606    18.618  -143.775   -22.253   153.820   -20.530   -86.392 
 3210.000000   -31.110    72.246    18.562  -147.232   -22.173   150.962   -21.050   -89.841 
 3240.000000   -31.666    62.952    18.520  -150.115   -22.105   148.641   -20.974   -93.681 
 3280.000000   -31.348    63.880    18.445  -153.971   -22.066   145.640   -21.026   -96.600 
 3310.000000   -32.279    55.982    18.385  -156.546   -22.022   143.472   -21.179  -100.325 
 3350.000000   -29.643    50.157    18.341  -160.331   -21.961   140.386   -21.110  -103.272 
 3380.000000   -30.971    52.650    18.226  -163.059   -21.974   138.460   -21.336  -106.939 
 3420.000000   -29.325    41.369    18.174  -166.770   -21.906   135.286   -21.079  -110.436 
 3450.000000   -30.424    47.851    18.104  -169.457   -21.871   133.260   -21.198  -114.518 
 3490.000000   -28.651    40.769    18.053  -173.079   -21.783   130.567   -21.681  -115.998 
 3520.000000   -28.511    39.559    17.994  -175.792   -21.769   128.278   -21.681  -116.736 
 3560.000000   -27.674    26.517    17.944  -179.583   -21.668   125.227   -21.565  -120.080 
 3590.000000   -27.270    29.879    17.917   177.636   -21.624   123.119   -21.665  -122.112 
 3630.000000   -28.036    20.201    17.819   173.950   -21.587   119.943   -21.976  -125.815 
 3660.000000   -26.530    22.420    17.751   171.115   -21.519   117.716   -22.059  -129.369 
 3700.000000   -29.386    25.126    17.637   167.653   -21.529   114.534   -21.886  -135.070 
 3730.000000   -25.749    20.091    17.643   164.936   -21.441   112.749   -22.751  -135.444 
 3770.000000   -27.476    13.616    17.572   161.210   -21.365   109.254   -22.490  -140.270 
 3800.000000   -25.974    11.698    17.527   158.598   -21.269   107.580   -22.854  -142.296 
 3840.000000   -26.194    12.262    17.473   155.020   -21.267   104.678   -22.854  -143.706 
 3870.000000   -25.794    -3.670    17.450   152.146   -21.180   102.128   -22.628  -147.610 
 3910.000000   -26.187     1.168    17.336   148.246   -21.098    98.746   -22.431  -151.530 
 3940.000000   -26.528    -4.235    17.268   145.943   -21.139    96.483   -22.859  -156.976 
 3980.000000   -26.118    -2.222    17.202   141.933   -21.081    93.602   -22.835  -158.819 
 4010.000000   -26.405     1.731    17.138   139.791   -21.081    91.438   -23.155  -168.986 
 4050.000000   -24.758    -8.214    17.130   135.849   -20.971    88.533   -23.585  -163.894 
 4080.000000   -25.907   -12.513    17.079   133.040   -20.882    86.189   -23.303  -165.599 
 4120.000000   -25.203   -19.671    16.985   129.175   -20.849    83.192   -23.093  -171.345 
 4150.000000   -26.603   -18.597    16.896   126.607   -20.802    80.813   -22.774  -174.148 
 4190.000000   -26.075   -24.078    16.828   123.068   -20.809    77.527   -22.638   177.886 
 4220.000000   -25.514   -20.749    16.803   120.640   -20.779    75.870   -23.456   175.274 
 4260.000000   -25.659   -33.485    16.742   116.871   -20.686    72.422   -22.761   172.964 
 4290.000000   -25.683   -24.545    16.672   114.325   -20.727    69.930   -22.942   167.965 
 4330.000000   -25.408   -42.719    16.698   110.482   -20.584    67.167   -23.031   168.487 
 4360.000000   -24.922   -38.200    16.588   107.950   -20.559    64.725   -23.047   164.050 
 4400.000000   -26.171   -37.746    16.521   104.598   -20.547    61.944   -23.481   158.792 
 4430.000000   -24.848   -42.359    16.514   101.763   -20.473    59.592   -23.275   158.412 
 4470.000000   -26.171   -46.945    16.445    97.941   -20.372    56.552   -23.220   156.734 
 4500.000000   -26.684   -49.146    16.339    95.248   -20.392    53.908   -22.819   150.226 
 4540.000000   -26.539   -54.186    16.318    91.623   -20.311    51.329   -23.060   149.555 
 4570.000000   -26.289   -54.295    16.239    89.128   -20.337    48.447   -22.669   143.306 
 4610.000000   -25.547   -53.801    16.211    85.603   -20.274    46.009   -23.762   139.778 
 4640.000000   -25.658   -61.273    16.172    82.938   -20.216    43.566   -23.673   137.935 
 4680.000000   -26.050   -61.375    16.105    79.390   -20.148    40.460   -23.212   133.276 
 4710.000000   -26.355   -74.523    16.095    76.382   -20.088    37.993   -23.072   130.923 
 4750.000000   -26.740   -69.894    15.997    73.152   -20.071    35.027   -22.970   124.367 
 4780.000000   -27.474   -80.159    15.945    70.197   -19.990    32.478   -22.647   124.952 
 4820.000000   -26.719   -85.266    15.899    66.458   -19.926    29.474   -22.006   122.931 
 4850.000000   -28.918   -65.552    15.765    64.585   -20.050    26.605   -21.848   112.722 
